! Skyworks SMV1408-219 De-embedded S-Parameter Data																		
! Created  11-5-2013																		
! 2 Port Network Data																		
! Mounted on Board # SK41159-3 Rev 1 in Series, Cathode is connected to RF1 as Input( Pin 1) and Anode is connected RF2 as Output(Pin 2)																	
! Temperature = +25 °C																		
! RF traces and connectors are de-embedded using TRL calibration and standards																		
! Reference planes are package pins																		
! Pin 1 Input port (S-Port1), Pin 2 Output port (S-port2)																		
! Pin = 0 dBm, Bias: Vr = 0.5V																		
! Dev # 1

#  HZ   S   DB   R     50.00 
! Rohde & Schwarz ZVA24 4Ports - Version 2.90 - 1145.1110k26 SN: 100216
! Date: 2013-11-05 15:26:29
! Measurements: S11 S21 S12 S22 
! 
 1.000000000000000E7     9.438808618065432E-1   4.127733026768646  -3.312491263456796E1   8.845815300679304E1  -3.376045334097628E1   8.678866629400362E1  -8.692795458703272E-1  -5.787844310829714  
 2.000000000000000E7    -4.102989824966934E-1  -9.882680534593411E-1  -2.783639514374852E1   9.068421038790429E1  -2.767020222940337E1   8.647301038144933E1   3.895682448332832E-2  -1.904780578084128  
 3.000000000000000E7     1.679349295745570E-1  -1.555179541890774  -2.396398624047625E1   8.855114561794272E1  -2.430164027875367E1   8.791707666220910E1  -2.382804621761081E-1  -2.465837965743964  
 4.000000000000000E7    -2.036762939973141E-2  -5.416073255116420  -2.154624957631336E1   8.573586126919226E1  -2.158335040222306E1   8.673011570938566E1  -1.383898191243866E-2  -3.469699673507705  
 5.000000000000000E7    -1.891247202140828E-1  -6.902826238285050  -1.963779073123122E1   8.468791779220240E1  -1.962951567234926E1   8.267577842682724E1   1.430390968176604E-1  -5.835291146464355  
 6.000000000000000E7    -8.084927998454165E-2  -6.909387893245548  -1.810547624481975E1   8.403774465632195E1  -1.814128001879309E1   8.197883548768796E1  -1.108067541369101E-1  -7.548440260038516  
 7.000000000000000E7    -1.183349619186868E-1  -9.607427004553403  -1.671568611523461E1   8.131981793349794E1  -1.668869596799279E1   8.170200497439781E1   7.791585026777922E-2  -7.466124608847066  
 8.000000000000000E7    -1.996008897462457E-1  -9.442663184940669  -1.576127499683086E1   8.081538630826405E1  -1.546278316863510E1   8.106873344004555E1   5.192786078931492E-2  -8.925076112579372  
 9.000000000000000E7    -1.732410549422660E-1  -9.640581002218784  -1.470835819652193E1   7.968688878262455E1  -1.472168280502358E1   8.019987108706975E1  -2.890848212899258E-1  -1.134863172002614E1  
 1.000000000000000E8    -2.122440150251360E-1  -1.161838258488764E1  -1.375938680414468E1   7.802713293306472E1  -1.373831605886541E1   7.936243366825903E1  -1.959638434498242E-1  -1.122297465498987E1  
 1.100000000000000E8    -1.710356857321705E-1  -1.332560667882168E1  -1.295785573839932E1   7.692915383122785E1  -1.293659243391582E1   7.759077612843041E1  -2.038067216029688E-1  -1.264300247912439E1  
 1.200000000000000E8    -2.819106231522861E-1  -1.489003720636295E1  -1.219758464036375E1   7.517781753846904E1  -1.217351560016865E1   7.663372876333439E1  -1.722488099057930E-1  -1.393172518810079E1  
 1.300000000000000E8    -2.533265411149251E-1  -1.544516342857519E1  -1.155641665768184E1   7.491355723923712E1  -1.160679481798861E1   7.492431264317270E1  -3.327048650689077E-1  -1.545244914738362E1  
 1.400000000000000E8    -3.942919357819912E-1  -1.685858200283706E1  -1.097481810320899E1   7.312465401081931E1  -1.093140713609518E1   7.387351139470687E1  -2.363754168465621E-1  -1.636368331342064E1  
 1.500000000000000E8    -4.229078740956358E-1  -1.795389801297320E1  -1.048268318733396E1   7.262937118333781E1  -1.044622457980492E1   7.236819823984104E1  -3.587472191987775E-1  -1.753067163124528E1  
 1.600000000000000E8    -5.005835981281528E-1  -1.855686836495733E1  -1.004264367739333E1   7.160169231385419E1  -9.988076522122839   7.174874042446005E1  -4.279652798847788E-1  -1.867963939113379E1  
 1.700000000000000E8    -4.906664921709673E-1  -1.997624381099536E1  -9.522443218443357   7.066930534534660E1  -9.522213487302446   7.054029432830674E1  -4.925163227036101E-1  -1.968335567081017E1  
 1.800000000000000E8    -5.214662002881789E-1  -2.124087582409595E1  -9.045249875258149   6.964825901259452E1  -9.071809573135646   6.962080449005246E1  -5.188862581813231E-1  -2.024822129036570E1  
 1.900000000000000E8    -5.839143174906057E-1  -2.188424399369916E1  -8.648828971806745   6.858319575825104E1  -8.668672721102963   6.863358987134147E1  -5.937163326877235E-1  -2.167535000942484E1  
 2.000000000000000E8    -6.223552722249903E-1  -2.321601359643211E1  -8.251410421214789   6.758810601987815E1  -8.290184313938429   6.761662335685045E1  -6.976947311723073E-1  -2.261805927617111E1  
 2.100000000000000E8    -7.097479633351678E-1  -2.424457656067096E1  -7.878983651940653   6.675285285080281E1  -7.893142855705294   6.684144007611259E1  -7.307322726981416E-1  -2.351500649002350E1  
 2.200000000000000E8    -7.378083045200877E-1  -2.517329938895058E1  -7.502150244379209   6.575135096789106E1  -7.545785797602096   6.596430156964088E1  -7.620711509801309E-1  -2.451075190602603E1  
 2.300000000000000E8    -8.144021264733258E-1  -2.655610557808396E1  -7.213833449127904   6.469129272028849E1  -7.192051395904477   6.457069971098595E1  -8.496793476033989E-1  -2.534728056551481E1  
 2.400000000000000E8    -8.967593529011131E-1  -2.741295490210016E1  -6.944915240540130   6.371235326017965E1  -6.898593839381513   6.385583404830862E1  -8.940084270135016E-1  -2.641727716783075E1  
 2.500000000000000E8    -1.009786220250231  -2.815094991872475E1  -6.635096206289133   6.291026993589188E1  -6.655353619526989   6.299431648129174E1  -9.324700312029953E-1  -2.726207371072324E1  
 2.600000000000000E8    -1.011364597297521  -2.898631722471405E1  -6.372931642772634   6.202919336761164E1  -6.425745168454746   6.211598687825025E1  -1.075053902706610  -2.834350601752776E1  
 2.700000000000000E8    -1.084145526686067  -2.998948180696583E1  -6.107905815826041   6.117602021033002E1  -6.181163099078493   6.108477261985128E1  -1.147681776873309  -2.938018310688666E1  
 2.800000000000000E8    -1.207733085483612  -3.106947991988854E1  -5.893090377006770   6.015945910585286E1  -5.881087069767764   6.011399954513762E1  -1.147847558102420  -3.029283175263993E1  
 2.900000000000000E8    -1.282929449615621  -3.218417143792672E1  -5.688859641770231   5.904755766240957E1  -5.684620405410528   5.914654564646811E1  -1.280087768454643  -3.113296527654313E1  
 3.000000000000000E8    -1.355970608816434  -3.272062827292142E1  -5.473864933558128   5.846413034771909E1  -5.491784565198079   5.858143846396101E1  -1.372671204283120  -3.183308078988005E1  
 3.100000000000000E8    -1.402733503687167  -3.369680508425596E1  -5.251060023467752   5.758437227412320E1  -5.289981881513897   5.766044608970533E1  -1.448742632897597  -3.271194498833660E1  
 3.200000000000000E8    -1.524425600005228  -3.455267734948743E1  -5.058664906558769   5.678907834877145E1  -5.065814429772783   5.679765264963546E1  -1.458459996307788  -3.362575993206499E1  
 3.300000000000000E8    -1.563606619367320  -3.573452625103042E1  -4.860813304329069   5.595245624767447E1  -4.891441570231507   5.594154208582873E1  -1.573055057311322  -3.427330251637584E1  
 3.400000000000000E8    -1.615508529749140  -3.644646286258519E1  -4.661037174031514   5.520327241922192E1  -4.713571571784446   5.524435449412925E1  -1.651917713783329  -3.488737187159526E1  
 3.500000000000000E8    -1.718551987869852  -3.730553509820445E1  -4.487028764503400   5.416384747796278E1  -4.518495903831957   5.454031529376769E1  -1.739296348959665  -3.602253658319165E1  
 3.600000000000000E8    -1.807540719531114  -3.816844886161727E1  -4.367267520109928   5.347928982120084E1  -4.346908976284888   5.371311614167087E1  -1.832802485799935  -3.660649932990926E1  
 3.700000000000000E8    -1.866032289486954  -3.864773993791602E1  -4.202883232577668   5.283742611189485E1  -4.186427526953043   5.298277504230956E1  -1.920806433202123  -3.757903204413576E1  
 3.800000000000000E8    -2.174148284247398  -3.905300548110319E1  -4.233063668784910   5.084600623055317E1  -4.249422126470275   5.068314850029614E1  -2.113390472271103  -3.688712239333765E1  
 3.900000000000000E8    -2.269738798069163  -3.996656427965827E1  -4.105547703112018   5.026142726404511E1  -4.122746709700239   5.019079788008033E1  -2.160501353373814  -3.727725545750484E1  
 4.000000000000000E8    -2.379038914974163  -4.077541650263807E1  -3.987793746466390   4.947051808494578E1  -3.999415602132485   4.945975437309136E1  -2.257594856923967  -3.789648412606223E1  
 4.100000000000000E8    -2.339936128980670  -4.117290660200388E1  -3.851215566619641   4.894046607766642E1  -3.873549821600434   4.889518573895607E1  -2.420302974947148  -3.883853220660339E1  
 4.200000000000000E8    -2.515903275021368  -4.237358490042825E1  -3.733312601420068   4.800848885654253E1  -3.754484001545074   4.806197457392960E1  -2.473928612480409  -3.916189016788579E1  
 4.300000000000000E8    -2.559049061976561  -4.298869488247007E1  -3.618405701328115   4.772967238591665E1  -3.623490436753358   4.760389776276684E1  -2.576323437770654  -4.000072924887903E1  
 4.400000000000000E8    -2.660361275537394  -4.351137379847535E1  -3.500148747577415   4.692670055855695E1  -3.521336307059786   4.674159452311815E1  -2.630614802778727  -4.088221098293657E1  
 4.500000000000000E8    -2.763361548873836  -4.418380873486768E1  -3.398627034600610   4.643874148087546E1  -3.410694830755773   4.634649919204465E1  -2.724648308731973  -4.118087723397341E1  
 4.600000000000000E8    -2.861012883294377  -4.472437731906132E1  -3.294024785731735   4.565661180121937E1  -3.300508356644800   4.576702398251809E1  -2.758556514544069  -4.180687996059908E1  
 4.700000000000000E8    -2.965457549431907  -4.565938101823181E1  -3.218350582772579   4.495403606466992E1  -3.230360457918677   4.501118594513314E1  -2.862978772286613  -4.203793167712843E1  
 4.800000000000000E8    -2.990294524096371  -4.639010206104433E1  -3.097368643724400   4.441349366483900E1  -3.119159085141142   4.454324420612784E1  -2.985465843570313  -4.282342745574154E1  
 4.900000000000000E8    -3.117686974624427  -4.701668271439493E1  -2.995509717781419   4.373121977799159E1  -3.018482829542188   4.389610702869825E1  -3.030919770395962  -4.350726643900219E1  
 5.000000000000000E8    -3.227405265753345  -4.752873731856010E1  -2.953064879479903   4.342030734827094E1  -2.957068394912963   4.336166236285402E1  -3.095026577243960  -4.354334982188618E1  
 5.100000000000000E8    -3.254565751651942  -4.768619872853846E1  -2.867344703447882   4.285226407372068E1  -2.876421312205078   4.280522227228867E1  -3.196452526638454  -4.421342428438633E1  
 5.200000000000000E8    -3.355848047346120  -4.813509509928461E1  -2.786329708967808   4.229690403590544E1  -2.800093682685182   4.213412658039458E1  -3.310042676853592  -4.504431657828199E1  
 5.300000000000000E8    -3.421104179535130  -4.912543911145712E1  -2.702482583145831   4.166821539354600E1  -2.704192900035759   4.167148510489738E1  -3.410014647198961  -4.527916646214234E1  
 5.400000000000000E8    -3.506966900015712  -4.964925459706137E1  -2.640528775199942   4.113402877913030E1  -2.634201473014716   4.116751500084884E1  -3.513635366321589  -4.574148322827418E1  
 5.500000000000000E8    -3.594489273801191  -5.019905802600340E1  -2.557488399815179   4.068914463870318E1  -2.575543591601924   4.074559693359377E1  -3.580910349658084  -4.632672356159394E1  
 5.600000000000000E8    -3.703843126838831  -5.061052056602934E1  -2.474774707266286   4.007118033482502E1  -2.502444103963215   4.021681519685938E1  -3.670707870985732  -4.685766986213741E1  
 5.700000000000000E8    -3.757476882089995  -5.117155856192191E1  -2.426786741747986   3.959286631299879E1  -2.435837082214130   3.957743702264234E1  -3.767459251247217  -4.733754261491443E1  
 5.800000000000000E8    -3.880791287372785  -5.177675081527097E1  -2.355692804143148   3.903983272069551E1  -2.357194819894994   3.915087472286275E1  -3.820780937072200  -4.776279854012272E1  
 5.900000000000000E8    -3.956440692362228  -5.226357288792374E1  -2.295782051444997   3.863708065896257E1  -2.311648028609668   3.862653580834828E1  -3.925535998917750  -4.827269640216121E1  
 6.000000000000000E8    -4.066385958907810  -5.286207010484394E1  -2.255934288606690   3.822407624428222E1  -2.259497847456526   3.828487009715136E1  -3.950609686998121  -4.855432328809577E1  
 6.100000000000000E8    -4.104103855647054  -5.335294510405233E1  -2.192106112408831   3.780537756810232E1  -2.191609927629975   3.777265005412330E1  -4.075943152951753  -4.905954004196349E1  
 6.200000000000000E8    -4.219338422763326  -5.387483724175972E1  -2.124636625343086   3.745318069747889E1  -2.144334619042128   3.740069241990926E1  -4.124704148797794  -4.928994427459141E1  
 6.300000000000000E8    -4.324339676839359  -5.416845527789560E1  -2.101954906262346   3.699287715877331E1  -2.106707419516480   3.686289535466699E1  -4.234770683190510  -4.962648261567209E1  
 6.400000000000000E8    -4.392030074539147  -5.470603071055121E1  -2.040360059337379   3.657867646912348E1  -2.034335100485837   3.649949629230076E1  -4.307997116937614  -4.992606402003086E1  
 6.500000000000000E8    -4.478664963051761  -5.527270234175793E1  -1.968934304820654   3.613551684613837E1  -1.985974618242511   3.614379257079973E1  -4.405727118244423  -5.008075606393471E1  
 6.600000000000000E8    -4.569823313045633  -5.551709200899789E1  -1.943401386182785   3.569332264370652E1  -1.950648146362559   3.574488642915315E1  -4.510225217183451  -5.053356161584375E1  
 6.700000000000000E8    -4.649799921917950  -5.595109873585772E1  -1.875019118984865   3.522868347766182E1  -1.883094998077439   3.514614071604178E1  -4.621358110350816  -5.117668792616686E1  
 6.800000000000000E8    -4.722052380619359  -5.658800078493741E1  -1.831716248781682   3.480388820066165E1  -1.848201603766867   3.483531428070798E1  -4.720310222389454  -5.128678286942587E1  
 6.900000000000000E8    -4.777546471891661  -5.706509685154256E1  -1.787894867664507   3.436078865596632E1  -1.799157232651870   3.442162477817439E1  -4.832789474217151  -5.168434966785606E1  
 7.000000000000000E8    -4.905026112558224  -5.741200399059781E1  -1.760287185353867   3.396410309935340E1  -1.760120007865061   3.411471766964841E1  -4.865181239849682  -5.213412627689919E1  
 7.100000000000000E8    -5.004594683988292  -5.783909852842569E1  -1.720163269211228   3.357984624065925E1  -1.722196237491139   3.358356979912408E1  -4.945557869965199  -5.267792058448217E1  
 7.200000000000000E8    -5.074980191481489  -5.836721177125315E1  -1.679198687506049   3.319877913820382E1  -1.684112396947025   3.316356996545184E1  -5.033460777263612  -5.285219843356069E1  
 7.300000000000000E8    -5.169439486695029  -5.864800299399326E1  -1.653641087393092   3.287671123925219E1  -1.656016201150658   3.286981708870486E1  -5.086533346048099  -5.319006084484562E1  
 7.400000000000000E8    -5.212950662771399  -5.905275125364942E1  -1.614506677879036   3.251897937805945E1  -1.610675926062168   3.261141479570563E1  -5.176946787301633  -5.350112276682669E1  
 7.500000000000000E8    -5.289097970952217  -5.959924415221813E1  -1.580386417521984   3.214679096812098E1  -1.587495282806241   3.221931808065968E1  -5.276755040756217  -5.373363050950805E1  
 7.600000000000000E8    -5.384386190676803  -5.973682687182034E1  -1.552130561592489   3.187084489686778E1  -1.544491289322899   3.188302845720467E1  -5.344327879551432  -5.416675396328078E1  
 7.700000000000000E8    -5.466816236973141  -6.014954108859714E1  -1.512260056911162   3.160049656498397E1  -1.514746237206051   3.156827310095711E1  -5.420981340251756  -5.437444043074102E1  
 7.800000000000000E8    -5.569535871168457  -6.069703932640259E1  -1.471428510673245   3.117448299770441E1  -1.473129245377585   3.113669618306196E1  -5.513382350540406  -5.467225714149072E1  
 7.900000000000000E8    -5.657196040386326  -6.091588817863635E1  -1.447149691699938   3.090456270932342E1  -1.442716663707445   3.090839345896332E1  -5.601636201962896  -5.479873718046877E1  
 8.000000000000000E8    -5.750152084763211  -6.122212457368779E1  -1.406945495166115   3.052856069446009E1  -1.413861553158081   3.060103784286189E1  -5.673628793527128  -5.516888659734661E1  
 8.100000000000000E8    -5.819011382272059  -6.176425826451916E1  -1.368842086023255   3.018794174967474E1  -1.389923524231771   3.014561634169980E1  -5.794184733001520  -5.540696563982827E1  
 8.200000000000000E8    -5.917926583639094  -6.214291664127632E1  -1.347588483789126   2.981144834669421E1  -1.352100905411666   2.986955611743931E1  -5.871418066180915  -5.579156362096866E1  
 8.300000000000000E8    -5.997105336202824  -6.246157947219435E1  -1.319737772809142   2.954991207596036E1  -1.324415267801433   2.949992642292320E1  -5.947031467982251  -5.619258551946523E1  
 8.400000000000000E8    -6.057475164301827  -6.279554333029603E1  -1.299277608070910   2.927345152393461E1  -1.301776078514339   2.928564165225873E1  -6.017967336776080  -5.633821133860160E1  
 8.500000000000000E8    -6.123581579235749  -6.315885793683240E1  -1.270902033500607   2.893724979944336E1  -1.272379025786158   2.893649249693057E1  -6.099046694492450  -5.667148833196896E1  
 8.600000000000000E8    -6.186472867254227  -6.334165747716288E1  -1.248311572849269   2.861795580434264E1  -1.248705048080672   2.862699509365550E1  -6.184058682710422  -5.702613555923777E1  
 8.700000000000000E8    -6.272701114714337  -6.358136516504958E1  -1.226359433078203   2.834085417107059E1  -1.229772702391430   2.833104271404549E1  -6.230057408165891  -5.719223843995864E1  
 8.800000000000000E8    -6.321764867030086  -6.403834825164491E1  -1.199455273798800   2.813543954614468E1  -1.203720654888475   2.819126842008503E1  -6.324461345878401  -5.732397859048000E1  
 8.900000000000000E8    -6.416477076891806  -6.418018873742032E1  -1.170907378586377   2.781491269395483E1  -1.177003234078577   2.785880140537342E1  -6.396359913753599  -5.777362334647672E1  
 9.000000000000000E8    -6.514452143436160  -6.455842434043355E1  -1.154012960952634   2.748412145256734E1  -1.149484537795089   2.758680423247523E1  -6.473345741966961  -5.787749610025352E1  
 9.100000000000000E8    -6.594888527442634  -6.488003990623031E1  -1.129062018452114   2.729756071475752E1  -1.130925626048520   2.735868269015641E1  -6.573544728253179  -5.807328976838863E1  
 9.200000000000000E8    -6.655696881521920  -6.516606988159813E1  -1.107078801782212   2.699396483222733E1  -1.111119386768391   2.704398913280482E1  -6.664416379273517  -5.829316480306493E1  
 9.300000000000000E8    -6.745880562033609  -6.554938897933297E1  -1.082984778526009   2.678327055094742E1  -1.085208490527714   2.672107906597396E1  -6.750799827985843  -5.859284930859521E1  
 9.400000000000000E8    -6.827279216665605  -6.596049733930683E1  -1.058636142330793   2.645811038277245E1  -1.069589283522183   2.652254116732593E1  -6.830277308306795  -5.876892431587099E1  
 9.500000000000000E8    -6.898160815994539  -6.624322258577888E1  -1.038343452810215   2.619222323453700E1  -1.045080531124121   2.622193789699945E1  -6.915525184802684  -5.908078404692642E1  
 9.600000000000000E8    -6.967907908321700  -6.651214947541997E1  -1.030245477605772   2.596889456014107E1  -1.021739125832283   2.591782389836098E1  -6.981777094617295  -5.937948464178390E1  
 9.700000000000000E8    -7.021668933905034  -6.689574175224053E1  -1.000000288144118   2.573954345311953E1  -1.004796452215646   2.568251377991508E1  -7.052565631543911  -5.961529138075927E1  
