! Skyworks SMV1408-219 De-embedded S-Parameter Data																		
! Created  11-5-2013																		
! 2 Port Network Data																		
! Mounted on Board # SK41159-3 Rev 1 in Series, Cathode is connected to RF1 as Input( Pin 1) and Anode is connected RF2 as Output(Pin 2)																	
! Temperature = +25 °C																		
! RF traces and connectors are de-embedded using TRL calibration and standards																		
! Reference planes are package pins																		
! Pin 1 Input port (S-Port1), Pin 2 Output port (S-port2)																		
! Pin = 0 dBm, Bias: Vr = 1V																		
! Dev # 1

#  HZ   S   DB   R     50.00 
! Rohde & Schwarz ZVA24 4Ports - Version 2.90 - 1145.1110k26 SN: 100216
! Date: 2013-11-05 15:24:14
! Measurements: S11 S21 S12 S22 
! 
 1.000000000000000E7     8.633856765526619E-1   4.908366200783273  -3.431524448839343E1   8.400368705913056E1  -3.514251406885808E1   9.094896240358374E1  -9.375461862914957E-1  -6.849209936565047  
 2.000000000000000E7    -3.322354028194384E-1  -2.294221785744881  -2.917952443143578E1   8.976782684181180E1  -2.929175995746446E1   8.419189007051142E1   4.427227277267121E-2  -1.509294635846081  
 3.000000000000000E7     1.672574709344940E-1  -2.497219404109215  -2.524386569148046E1   8.759443260463470E1  -2.564443067014281E1   8.800744278200820E1  -1.587143341116788E-1  -2.758500949603752  
 4.000000000000000E7    -9.535920378792025E-3  -3.903983624441944  -2.287795456485852E1   8.674418731796227E1  -2.272522102073334E1   8.726739395621473E1   1.027344973454192E-1  -3.221087670811975  
 5.000000000000000E7    -1.783133116380520E-1  -5.369598118375105  -2.098375913651486E1   8.514513090168423E1  -2.094369890293958E1   8.453089576978844E1   1.759032195572464E-1  -4.960790096547306  
 6.000000000000000E7    -3.947082116923645E-2  -6.356062274089042  -1.939453542458227E1   8.521653164078568E1  -1.956962759728917E1   8.344353229345431E1  -2.692616964546180E-1  -6.077677020530958  
 7.000000000000000E7    -6.696601161540511E-2  -8.661081781915936  -1.800166085438578E1   8.253851238111953E1  -1.807770206465980E1   8.332570592221180E1  -3.558212667664607E-2  -6.186192482640483  
 8.000000000000000E7    -1.202786607124651E-1  -8.385002266848092  -1.702295295587715E1   8.223396582817721E1  -1.688359610822755E1   8.253019999986849E1  -3.526881414694187E-2  -7.710304283755011  
 9.000000000000000E7    -1.042691094169020E-1  -7.723221210308761  -1.598027185477516E1   8.146719944198112E1  -1.602712274870468E1   8.129415247483426E1  -2.377602632969810E-1  -1.034216287532551E1  
 1.000000000000000E8    -1.477155889998494E-1  -1.016032135027893E1  -1.504157958622373E1   7.984267261193170E1  -1.507319774644253E1   8.099481494343516E1  -1.606249889063295E-1  -9.724539418192215  
 1.100000000000000E8    -6.861808020401118E-2  -1.165006772382898E1  -1.420206478022842E1   7.877586895648926E1  -1.427949293728774E1   7.953516209086098E1  -1.877772379344533E-1  -1.085099362527662E1  
 1.200000000000000E8    -2.053679423845113E-1  -1.279123843380605E1  -1.346661917833099E1   7.746751178327645E1  -1.347852545527069E1   7.839722866546836E1  -1.097327496821130E-1  -1.211727887583382E1  
 1.300000000000000E8    -1.710468891518331E-1  -1.343401350661005E1  -1.282090216784777E1   7.706316469494303E1  -1.288114333298280E1   7.736505454281283E1  -2.554403172975601E-1  -1.323998352906393E1  
 1.400000000000000E8    -2.950515902833825E-1  -1.447961810619743E1  -1.220832446836974E1   7.578155481452885E1  -1.222983946669240E1   7.602049863978502E1  -1.834759433762724E-1  -1.424223877416516E1  
 1.500000000000000E8    -2.757130508227995E-1  -1.565776773506151E1  -1.165674170874769E1   7.500970228618607E1  -1.165689920328554E1   7.488965357918967E1  -2.326611066088360E-1  -1.515399088163543E1  
 1.600000000000000E8    -3.594421961472240E-1  -1.598413197810831E1  -1.123569626124210E1   7.425778140190445E1  -1.118643881542728E1   7.408001696326922E1  -3.134654268249265E-1  -1.640327837949230E1  
 1.700000000000000E8    -3.608536503958045E-1  -1.738133833536928E1  -1.071963601544434E1   7.320795470737100E1  -1.072353622379371E1   7.294947131193642E1  -3.932441980943662E-1  -1.738660382864738E1  
 1.800000000000000E8    -3.863488178027183E-1  -1.857461695624051E1  -1.024754892030085E1   7.237952800135000E1  -1.026761392008717E1   7.257619928986040E1  -4.086064791711170E-1  -1.732385651183539E1  
 1.900000000000000E8    -4.029797256718583E-1  -1.942255204366718E1  -9.793700376184701   7.122188026043139E1  -9.837421917479984   7.155294752705767E1  -4.401152354127217E-1  -1.884694627823046E1  
 2.000000000000000E8    -4.512116506129745E-1  -2.034700451896302E1  -9.417738243086374   7.044511888736682E1  -9.418873039359879   7.061467885142109E1  -5.065877628857564E-1  -1.974813749871978E1  
 2.100000000000000E8    -5.274920420449001E-1  -2.118419147383546E1  -9.030828351707013   6.990159094322725E1  -9.031225899348547   6.978209501583993E1  -5.255079819167179E-1  -2.059311848384764E1  
 2.200000000000000E8    -5.536564680386470E-1  -2.203175900918789E1  -8.644264295109910   6.900294080244144E1  -8.689232768017407   6.915584555757748E1  -5.757552004584867E-1  -2.141786158337803E1  
 2.300000000000000E8    -5.773358043706568E-1  -2.334623889119359E1  -8.305676668716449   6.789192656358533E1  -8.337841362343601   6.817793643624384E1  -6.631722873839382E-1  -2.191430262781320E1  
 2.400000000000000E8    -6.714932720027577E-1  -2.391690252563913E1  -8.044556672968684   6.733132701743764E1  -7.994739661104632   6.726272620030001E1  -6.716145520455047E-1  -2.312762248627588E1  
 2.500000000000000E8    -7.680963343466752E-1  -2.470300344982512E1  -7.706638249146771   6.644750527744975E1  -7.716082487775282   6.625917570171261E1  -6.845401586893375E-1  -2.409076023670557E1  
 2.600000000000000E8    -7.524880892242714E-1  -2.549751164744814E1  -7.423894362790879   6.563684797482497E1  -7.465803475296131   6.568107649545061E1  -8.139788218922288E-1  -2.487677595635573E1  
 2.700000000000000E8    -8.165591527881195E-1  -2.651519303435901E1  -7.153556821492683   6.472466720950673E1  -7.175323330078523   6.483660322050274E1  -8.317088107279885E-1  -2.572117649304787E1  
 2.800000000000000E8    -9.112887527421582E-1  -2.739839950572912E1  -6.909916460068565   6.392330288386255E1  -6.865133297892802   6.381657437678499E1  -8.344638909278030E-1  -2.674293965457062E1  
 2.900000000000000E8    -9.846532363907898E-1  -2.834369304575490E1  -6.695241490188280   6.295771802426859E1  -6.682753386399289   6.294206061271949E1  -9.579495755329377E-1  -2.743490514984054E1  
 3.000000000000000E8    -1.035098272284912  -2.909731919478960E1  -6.457687818715619   6.220859429660643E1  -6.465071408341245   6.233174709970054E1  -1.029793362964276  -2.818984112087474E1  
 3.100000000000000E8    -1.075136034097478  -2.992130777161869E1  -6.229289621793926   6.147394768850085E1  -6.257118276126656   6.144039688426597E1  -1.112233375351257  -2.908842068284630E1  
 3.200000000000000E8    -1.173598320144745  -3.079820690484389E1  -6.014981549010297   6.063249110925485E1  -5.999899150782693   6.064757602286446E1  -1.083289784561031  -2.987897010265532E1  
 3.300000000000000E8    -1.183987625518119  -3.166203033093238E1  -5.792231103631230   6.008730269828047E1  -5.814470721785159   6.003464930141558E1  -1.190427223051340  -3.026385171150141E1  
 3.400000000000000E8    -1.217867210438639  -3.247647782454207E1  -5.582231884290206   5.925677057055690E1  -5.636756230325845   5.916420967357202E1  -1.263937154779777  -3.110135183837897E1  
 3.500000000000000E8    -1.302537200147983  -3.319820078280628E1  -5.395689305898568   5.838326286597319E1  -5.418797391268543   5.856614036939424E1  -1.327960114554196  -3.209051328223070E1  
 3.600000000000000E8    -1.395567630193499  -3.407718756206885E1  -5.264971597157024   5.763156351284863E1  -5.224873084417628   5.794016522162894E1  -1.399654076949142  -3.248243251538985E1  
 3.700000000000000E8    -1.420147430208242  -3.451358872441656E1  -5.060484620814084   5.701222477330988E1  -5.076496458904714   5.723537449266684E1  -1.496558535718180  -3.348060821815395E1  
 3.800000000000000E8    -1.731858913884686  -3.501112218067281E1  -5.088230459918155   5.487303752755065E1  -5.099088555324315   5.472941280785176E1  -1.656121691650177  -3.295996262702752E1  
 3.900000000000000E8    -1.795463108298134  -3.596306001315540E1  -4.937808289705533   5.432365344320083E1  -4.951076471459253   5.424076160536968E1  -1.687763760084997  -3.334297313616198E1  
 4.000000000000000E8    -1.895848260005368  -3.669622553891588E1  -4.805279615874546   5.361186185904595E1  -4.800201532596007   5.357483557066306E1  -1.756120453090385  -3.391230323334970E1  
 4.100000000000000E8    -1.864058018045158  -3.720795613145622E1  -4.671882231209011   5.298422912314828E1  -4.677246102292548   5.302542182403217E1  -1.921087920538797  -3.473712271841598E1  
 4.200000000000000E8    -1.992530700201020  -3.816213470135256E1  -4.517082875812396   5.221053092326938E1  -4.531540521777671   5.215956762073737E1  -1.952412316224512  -3.521416928554406E1  
 4.300000000000000E8    -2.014055467787096  -3.901889209956575E1  -4.378131074545335   5.174108557189843E1  -4.393292968908082   5.172507603701833E1  -2.043557121650447  -3.596900791767690E1  
 4.400000000000000E8    -2.101364605699431  -3.935568336521550E1  -4.243618102047083   5.109616872611763E1  -4.260911138460825   5.105410329324560E1  -2.074201951614812  -3.665200216731122E1  
 4.500000000000000E8    -2.201922296650847  -4.001925057331271E1  -4.137485639581693   5.064078742988009E1  -4.148501203345149   5.061884887231845E1  -2.153394087980603  -3.700377473445917E1  
 4.600000000000000E8    -2.291965178428201  -4.058457791141439E1  -4.033356263917715   4.987641809607279E1  -4.036833444238458   4.996721170865553E1  -2.195976004971585  -3.771170573538507E1  
 4.700000000000000E8    -2.367689928414624  -4.151899935336079E1  -3.931453903225997   4.913597137266451E1  -3.944650056818770   4.924776572523386E1  -2.278922840026956  -3.797687107397614E1  
 4.800000000000000E8    -2.394858431223898  -4.211929240980307E1  -3.811133921704176   4.873265811393468E1  -3.813825291935174   4.862752465177780E1  -2.387612428906275  -3.880252845963425E1  
 4.900000000000000E8    -2.515164166542212  -4.276750554897232E1  -3.695449173391791   4.806839015179540E1  -3.703794403382818   4.809593717714115E1  -2.416797646313341  -3.943288796012056E1  
 5.000000000000000E8    -2.601020248647083  -4.341088545639579E1  -3.622563514535699   4.757773096936652E1  -3.634268719460858   4.766116606095646E1  -2.472962368514553  -3.936365558079287E1  
 5.100000000000000E8    -2.628553325559460  -4.357067499878291E1  -3.539472724651261   4.702272925568573E1  -3.546452472418243   4.700812484193807E1  -2.564722119530430  -4.012209296090672E1  
 5.200000000000000E8    -2.702015522367590  -4.392444548819488E1  -3.447152624078640   4.654358470156452E1  -3.449727766410240   4.647133227851278E1  -2.660273069986709  -4.084321414152446E1  
 5.300000000000000E8    -2.743490302615514  -4.490129879578311E1  -3.332707217727780   4.591497908028127E1  -3.346375632155426   4.588676839822364E1  -2.755029611557592  -4.118028292534735E1  
 5.400000000000000E8    -2.822293672504744  -4.538788191547633E1  -3.261703460329140   4.542798630073941E1  -3.263247690025734   4.536535636725400E1  -2.839220059149611  -4.165744344772101E1  
 5.500000000000000E8    -2.902282040295587  -4.600738158236567E1  -3.167297579797461   4.493328463939997E1  -3.192352049781507   4.499392489913937E1  -2.901857049523458  -4.219997125049463E1  
 5.600000000000000E8    -3.017638434057924  -4.636348958447224E1  -3.087951052396945   4.431651170624841E1  -3.087593652224718   4.435022649545552E1  -2.952218915647701  -4.288367899786196E1  
 5.700000000000000E8    -3.061361705331549  -4.702846845291420E1  -3.032684045215317   4.378059308690063E1  -3.029738764735248   4.382699433294627E1  -3.061183583221188  -4.320301561102373E1  
 5.800000000000000E8    -3.142721678694821  -4.758595500627757E1  -2.930414107424852   4.324758675890821E1  -2.946432131441397   4.330639551518020E1  -3.106608500991423  -4.373272254125388E1  
 5.900000000000000E8    -3.226053329996880  -4.810235147391606E1  -2.869835461718267   4.281860917391954E1  -2.883186354694023   4.285810996740996E1  -3.195101267078515  -4.422826787458975E1  
 6.000000000000000E8    -3.324463006302738  -4.875660694991854E1  -2.816239780341107   4.235796415242213E1  -2.825505563810514   4.250024482378974E1  -3.216967231559325  -4.448618698056703E1  
 6.100000000000000E8    -3.350838920543122  -4.918294563828751E1  -2.740877608511255   4.199914862377902E1  -2.744515160260940   4.202083371626188E1  -3.333267046093101  -4.496578879037987E1  
 6.200000000000000E8    -3.467990700984559  -4.973551033867111E1  -2.673490919851711   4.159728716661446E1  -2.687492331845403   4.152539412819302E1  -3.365081007583112  -4.528079791819856E1  
 6.300000000000000E8    -3.544798790500593  -5.008658308557401E1  -2.628359721983051   4.109490490974358E1  -2.632278189873823   4.109376766691655E1  -3.459262156646762  -4.554720415398872E1  
 6.400000000000000E8    -3.616330046609063  -5.057719705299686E1  -2.568966946945899   4.074429051127336E1  -2.562846850802460   4.067719895900805E1  -3.536808337101017  -4.588235935357531E1  
 6.500000000000000E8    -3.684164045465177  -5.114042452963196E1  -2.487076713238062   4.027216990073912E1  -2.503938129300583   4.025910063675264E1  -3.621724814430107  -4.613625969752975E1  
 6.600000000000000E8    -3.755370301110988  -5.141562420367959E1  -2.442797236445597   3.981265782669274E1  -2.454065048719698   3.988142521857203E1  -3.708476723781956  -4.659760685878466E1  
 6.700000000000000E8    -3.835365786146455  -5.181111062550389E1  -2.372164156087324   3.939562450534486E1  -2.378740127351680   3.930191458547429E1  -3.816677442518846  -4.722379690025971E1  
 6.800000000000000E8    -3.894613438303080  -5.241605115336586E1  -2.318622796339221   3.893412957946845E1  -2.333070107242523   3.889405651247970E1  -3.898381395860603  -4.746410430252571E1  
 6.900000000000000E8    -3.942857970980025  -5.295002400628705E1  -2.264909048151295   3.845979360484655E1  -2.280136775036261   3.851391369988789E1  -4.003353345740436  -4.779730011313340E1  
 7.000000000000000E8    -4.061221520897432  -5.332209018679298E1  -2.224652268238808   3.809002302410917E1  -2.236265272176162   3.816025034893784E1  -4.037276496558923  -4.825868521714657E1  
 7.100000000000000E8    -4.154471141850197  -5.377976803042258E1  -2.181184985281888   3.767202396842781E1  -2.185226107451603   3.765876137665013E1  -4.099864977708857  -4.883603513692403E1  
 7.200000000000000E8    -4.217851780810679  -5.433467301471583E1  -2.136072417804124   3.726493271739318E1  -2.141345224068636   3.721265510795445E1  -4.186276221525380  -4.898348717551980E1  
 7.300000000000000E8    -4.308915343185507  -5.463024741698579E1  -2.099221542551828   3.688228895626807E1  -2.102639564918569   3.694078050287005E1  -4.224383994368185  -4.935160643313097E1  
 7.400000000000000E8    -4.348046478293502  -5.503725430500565E1  -2.048066374502535   3.658686130418720E1  -2.058356591164417   3.661323016212177E1  -4.311406525125939  -4.969527581873439E1  
 7.500000000000000E8    -4.421782834851480  -5.557282920621515E1  -2.019500789086846   3.618821212560400E1  -2.014846135799952   3.624232422089475E1  -4.388875784890360  -4.988001056548563E1  
 7.600000000000000E8    -4.494423352543218  -5.572231613433290E1  -1.973811319108675   3.583752863006775E1  -1.982852703800233   3.588849847753841E1  -4.473684111170585  -5.030128125227093E1  
 7.700000000000000E8    -4.563372563916873  -5.621928836935074E1  -1.931185302681909   3.555659230455029E1  -1.939165587062795   3.559621452067202E1  -4.534278027340113  -5.052391451024211E1  
 7.800000000000000E8    -4.657294868472196  -5.673723788963592E1  -1.876938830185104   3.511584885765664E1  -1.884893436719594   3.513263192737194E1  -4.619702679805734  -5.088702086394800E1  
 7.900000000000000E8    -4.730029435449205  -5.692947964481058E1  -1.842802908755988   3.485978621810910E1  -1.851437979188548   3.488434847946796E1  -4.689344577653042  -5.102856760602624E1  
 8.000000000000000E8    -4.829682308537100  -5.729608242309170E1  -1.806279165152219   3.443610526372719E1  -1.798000508070722   3.453355520039620E1  -4.746319757457386  -5.149457770990924E1  
 8.100000000000000E8    -4.889313057947395  -5.778362954820464E1  -1.764845905771288   3.415287288415282E1  -1.777920565611217   3.404975444059886E1  -4.865829215942543  -5.172564768271477E1  
 8.200000000000000E8    -4.972404528348576  -5.823385640050565E1  -1.731221311434898   3.371505470567671E1  -1.735754033640380   3.377282790696683E1  -4.938022984739968  -5.213076203577893E1  
 8.300000000000000E8    -5.052303466157554  -5.851525015160514E1  -1.698750664278777   3.341788189673945E1  -1.702824570816910   3.346818125570338E1  -5.002288636382748  -5.246802504439986E1  
 8.400000000000000E8    -5.111210505755047  -5.892803233650694E1  -1.672978178032801   3.310978816831835E1  -1.670227808101687   3.316647685015582E1  -5.064825937018300  -5.266665740643828E1  
 8.500000000000000E8    -5.161006156317210  -5.928126523527255E1  -1.633108846228217   3.278184721044291E1  -1.635324705807880   3.282074038144327E1  -5.143582324711341  -5.304757589586698E1  
 8.600000000000000E8    -5.216156881928396  -5.950017154318926E1  -1.601165635680299   3.248123860653681E1  -1.608401255443734   3.245050813110375E1  -5.230936716684834  -5.339772497730733E1  
 8.700000000000000E8    -5.301258609120807  -5.977284555876508E1  -1.578644516606054   3.212254391847538E1  -1.585672076604828   3.217403609995935E1  -5.267850389901873  -5.361780744589270E1  
 8.800000000000000E8    -5.352279428717460  -6.025898834824108E1  -1.552223348216534   3.187206448077017E1  -1.563995927646910   3.199694714872250E1  -5.362773425449667  -5.368851572258041E1  
 8.900000000000000E8    -5.437957130052090  -6.035929286102963E1  -1.519312067544150   3.159066091027245E1  -1.518707850061073   3.157057235815971E1  -5.409192626603520  -5.425699622710717E1  
 9.000000000000000E8    -5.531476407062505  -6.075401419427844E1  -1.500754342748633   3.124706622018661E1  -1.490523945208297   3.134110451515161E1  -5.482154690176373  -5.440765884122399E1  
 9.100000000000000E8    -5.595229556166273  -6.111927870359352E1  -1.463782916775147   3.102370363282623E1  -1.468116660209932   3.106480688391988E1  -5.581251144808412  -5.460843565899693E1  
 9.200000000000000E8    -5.649720563327069  -6.140812810332591E1  -1.435584277865639   3.071685231512768E1  -1.440775591186646   3.075201705679636E1  -5.660574229832371  -5.484362553770819E1  
 9.300000000000000E8    -5.733592440354866  -6.178562055614920E1  -1.407506389566202   3.049257338827356E1  -1.404766230758494   3.045822778591263E1  -5.735826569809433  -5.510516827924894E1  
 9.400000000000000E8    -5.802641961941228  -6.218324325577073E1  -1.372301165251271   3.014389302900139E1  -1.376392814677828   3.023470989593277E1  -5.801238563183119  -5.534309577706318E1  
 9.500000000000000E8    -5.870176158131651  -6.245208048785167E1  -1.346819641359217   2.988347836552467E1  -1.351797685014077   2.992219818871921E1  -5.883533614532841  -5.568039700527883E1  
 9.600000000000000E8    -5.931308455139475  -6.272674080794997E1  -1.332344508077731   2.965835618547278E1  -1.333775300604428   2.961345566359666E1  -5.958117304741121  -5.595792340355389E1  
 9.700000000000000E8    -5.978055605532570  -6.318658303615570E1  -1.295662923364915   2.934922770477226E1  -1.311177718777782   2.931639899425428E1  -6.022773053335752  -5.623621986852964E1  
