! Skyworks SMV1408-219 De-embedded S-Parameter Data																		
! Created  11-5-2013																		
! 2 Port Network Data																		
! Mounted on Board # SK41159-3 Rev 1 in Series, Cathode is connected to RF1 as Input( Pin 1) and Anode is connected RF2 as Output(Pin 2)																	
! Temperature = +25 °C																		
! RF traces and connectors are de-embedded using TRL calibration and standards																		
! Reference planes are package pins																		
! Pin 1 Input port (S-Port1), Pin 2 Output port (S-port2)																		
! Pin = 0 dBm, Bias: Vr = 10V																		
! Dev # 1

#  HZ   S   DB   R     50.00 
! Rohde & Schwarz ZVA24 4Ports - Version 2.90 - 1145.1110k26 SN: 100216
! Date: 2013-11-05 15:27:27
! Measurements: S11 S21 S12 S22 
! 
 1.000000000000000E7     7.379147147287187E-1   3.423438215861373  -4.086722841056105E1   9.467407912423893E1  -4.114322476994094E1   9.224626052439628E1  -1.058110794789675  -2.978359918386787  
 2.000000000000000E7    -3.883116506740044E-1   7.062737338436920E-1  -3.646923461407953E1   9.370944361083866E1  -3.518000710426059E1   8.119045371916202E1   1.289710954121340E-1  -4.093363464381365E-1  
 3.000000000000000E7     7.033059890223932E-2   4.529103967426298E-1  -3.224559575796562E1   9.258512524132732E1  -3.216338185858702E1   8.880153205665266E1  -1.452587480642362E-1  -1.800058164375006  
 4.000000000000000E7     1.789608312450227E-2  -2.069256529381721  -2.961240567400460E1   8.935867106936996E1  -2.986864582646262E1   9.101370097353542E1   7.644237181889950E-2  -7.374093636214371E-1  
 5.000000000000000E7    -1.097845693300345E-2  -3.063515907322745  -2.770030587686960E1   8.902853238642497E1  -2.798658042777917E1   8.845433399230294E1   1.017579907424538E-1  -5.808616522002006E-1  
 6.000000000000000E7    -6.229698192946857E-4  -3.165303955636423  -2.615307361126255E1   8.824388612960671E1  -2.636890211317139E1   8.678761461718402E1  -9.502631091083950E-2  -2.809082585493966  
 7.000000000000000E7    -4.630532664296676E-2  -3.879665733993382  -2.483478510125242E1   8.722750962585876E1  -2.489852831115774E1   8.692282374740223E1   5.735166033031192E-2  -2.555239219301228  
 8.000000000000000E7     1.443523420582534E-2  -3.960563473031034  -2.371711764158782E1   8.666539729466349E1  -2.368843439810310E1   8.613721086571742E1   2.806319352473978E-2  -3.528484692029327  
 9.000000000000000E7    -3.652022714502388E-2  -3.555230427977802  -2.273857295080418E1   8.606338670745663E1  -2.277031548225419E1   8.615644292133150E1  -8.683509336044874E-2  -5.096748747148189  
 1.000000000000000E8    -5.100913930426665E-2  -4.744031354201043  -2.179302007878495E1   8.516354030442845E1  -2.177547916283580E1   8.620516736539243E1   3.181691675249353E-2  -4.580477740620646  
 1.100000000000000E8     2.305132443742878E-2  -5.532161247532064  -2.095816227247202E1   8.496968977305627E1  -2.096211690204584E1   8.541739901224612E1  -3.090392094612739E-2  -4.801374634183092  
 1.200000000000000E8    -6.686685801744481E-2  -6.171039938080890  -2.018273333739841E1   8.424642679459466E1  -2.018487892334866E1   8.509734144906541E1   3.847894016272434E-2  -5.468048621928785  
 1.300000000000000E8    -3.918741489482303E-3  -6.256723470132964  -1.951221975617743E1   8.418936125740983E1  -1.955981460854102E1   8.453102467702891E1  -7.845623978897237E-2  -6.173208703084156  
 1.400000000000000E8    -7.364932443688803E-2  -6.902622843948218  -1.884993930457456E1   8.324672712600469E1  -1.885980230595517E1   8.383133853830438E1   3.134595978047997E-2  -6.563993425528603  
 1.500000000000000E8    -5.605421135547509E-2  -7.523848808620168  -1.829739190721895E1   8.333477367337329E1  -1.826402969030503E1   8.291182525568377E1  -2.525555822425917E-3  -7.229962623051655  
 1.600000000000000E8    -1.111101713967581E-1  -7.698248938649608  -1.781376938217884E1   8.248041226195227E1  -1.776766170247522E1   8.271960478181778E1  -5.228880104039153E-2  -7.792508405513708  
 1.700000000000000E8    -7.162734252770608E-2  -8.276071334420839  -1.727057880609405E1   8.237581947916182E1  -1.725370697665048E1   8.233792819870749E1  -8.887907601708689E-2  -8.008488934875745  
 1.800000000000000E8    -6.170816667172686E-2  -9.010656560804913  -1.674657118628667E1   8.204844449889225E1  -1.677175362901838E1   8.208256451348750E1  -9.152125372657051E-2  -8.072088295336537  
 1.900000000000000E8    -3.322617604855911E-2  -9.249932031383342  -1.626034717442115E1   8.157386587917252E1  -1.630651783549249E1   8.172654765380716E1  -7.449205877285378E-2  -8.839398550539524  
 2.000000000000000E8     2.741552717813556E-3  -9.965914151059318  -1.580719907015285E1   8.100094619658182E1  -1.585832559291540E1   8.130333600246271E1  -1.092160938078232E-1  -9.127614699046331  
 2.100000000000000E8    -8.496227859569533E-2  -1.023213298343413E1  -1.543250384980475E1   8.092808181471523E1  -1.543559202757766E1   8.094197581107893E1  -8.400336156524881E-2  -9.551438301564344  
 2.200000000000000E8    -7.098445747305802E-2  -1.058804566511405E1  -1.500924637383888E1   8.058195152913960E1  -1.505250258448788E1   8.071794214235771E1  -8.270751324650660E-2  -1.006040682621789E1  
 2.300000000000000E8    -7.309848804912282E-2  -1.144190370283333E1  -1.464148082486621E1   8.000976861842007E1  -1.466028973079987E1   8.013063024211917E1  -1.402894823844077E-1  -1.022095325016156E1  
 2.400000000000000E8    -9.460169696501632E-2  -1.178530121217592E1  -1.430594090588835E1   7.955653185028724E1  -1.427939999250590E1   7.964621111371508E1  -1.135029672696710E-1  -1.088261720311112E1  
 2.500000000000000E8    -1.648693923202120E-1  -1.202650482484563E1  -1.394990088203651E1   7.921878522935987E1  -1.395279423731605E1   7.923584404926775E1  -8.634226194934935E-2  -1.127911832487723E1  
 2.600000000000000E8    -1.111624208268193E-1  -1.247662457154620E1  -1.362908582131992E1   7.874317596298415E1  -1.366511658453265E1   7.882465992793956E1  -1.806938617192950E-1  -1.185599235856388E1  
 2.700000000000000E8    -1.344554239165971E-1  -1.295624252026006E1  -1.331179980797689E1   7.832962809708828E1  -1.332331826246636E1   7.839032644943184E1  -1.507606698334198E-1  -1.232596464043784E1  
 2.800000000000000E8    -1.692858477548981E-1  -1.348425825869449E1  -1.301088039922394E1   7.789786902512338E1  -1.297156544707131E1   7.771644631878381E1  -1.088567106695602E-1  -1.298673399107935E1  
 2.900000000000000E8    -2.035270179809001E-1  -1.422104699700778E1  -1.274899915558958E1   7.719414031534387E1  -1.272858164183157E1   7.729375213951673E1  -1.752913116334158E-1  -1.332169405366890E1  
 3.000000000000000E8    -1.885487144612295E-1  -1.436240857481363E1  -1.244672065330732E1   7.704558168506549E1  -1.245491836308759E1   7.704285685841693E1  -1.872722648752745E-1  -1.370776074750404E1  
 3.100000000000000E8    -2.027427038411799E-1  -1.486680254828707E1  -1.218858205815997E1   7.658264876658747E1  -1.220358048699576E1   7.658733478565480E1  -2.367293626940188E-1  -1.409546256674228E1  
 3.200000000000000E8    -2.575046348171793E-1  -1.545557778020154E1  -1.192536684057265E1   7.608560196379112E1  -1.190449987563954E1   7.609391235626963E1  -1.618073613960279E-1  -1.465887589514609E1  
 3.300000000000000E8    -2.112702737574605E-1  -1.607845560856163E1  -1.165600912610239E1   7.581226161944272E1  -1.167106322591053E1   7.588488697707101E1  -2.287811115865960E-1  -1.472105374642864E1  
 3.400000000000000E8    -2.187456933932131E-1  -1.641150408556894E1  -1.141629814243602E1   7.544301480007940E1  -1.146093452768350E1   7.537996460167359E1  -2.629928424934865E-1  -1.514443706348021E1  
 3.500000000000000E8    -2.355001973825789E-1  -1.672630709289986E1  -1.118030763234764E1   7.499413312270266E1  -1.117988011410766E1   7.515381890391288E1  -2.492881677167115E-1  -1.576582325953021E1  
 3.600000000000000E8    -2.654442944651246E-1  -1.757425185742322E1  -1.098252158195575E1   7.431889324018619E1  -1.095036960116270E1   7.482397320526945E1  -2.833175080675264E-1  -1.590111947566890E1  
 3.700000000000000E8    -2.498840224712681E-1  -1.750041849239765E1  -1.073262225476654E1   7.420762029734188E1  -1.072701384854147E1   7.434146407461348E1  -3.071591211631721E-1  -1.668152481486110E1  
 3.800000000000000E8    -4.506919539375470E-1  -1.844356226262414E1  -1.064817126186800E1   7.159716981784325E1  -1.064999148492453E1   7.173157988498434E1  -3.727306410656362E-1  -1.628941709539627E1  
 3.900000000000000E8    -4.687507250525934E-1  -1.904182872396523E1  -1.044452256382969E1   7.137541550329112E1  -1.046228361852320E1   7.141497572971380E1  -3.656956096319349E-1  -1.643025689205192E1  
 4.000000000000000E8    -5.164423608618263E-1  -1.951159384310257E1  -1.025388605014618E1   7.090673331651999E1  -1.026004988761968E1   7.094760092546594E1  -3.956133241813974E-1  -1.681477403814823E1  
 4.100000000000000E8    -4.190510423074391E-1  -1.967307758149319E1  -1.006473906964144E1   7.067359304955599E1  -1.008245636533819E1   7.059015333723352E1  -5.030532630202159E-1  -1.751442662194879E1  
 4.200000000000000E8    -5.098086889293257E-1  -2.069530415314262E1  -9.857648690595090   6.987593443720846E1  -9.878429263918001   6.999575385417286E1  -4.718929990686553E-1  -1.760630426156411E1  
 4.300000000000000E8    -5.083032464884377E-1  -2.096637994117780E1  -9.695006254942321   6.989718366899351E1  -9.713757473197418   6.984888498318674E1  -5.266137082669556E-1  -1.807336456378311E1  
 4.400000000000000E8    -5.272013544007689E-1  -2.122011922875571E1  -9.511018676817189   6.937369562728468E1  -9.523123344379137   6.932804842664555E1  -4.999074972500875E-1  -1.866147316537352E1  
 4.500000000000000E8    -5.689975002995287E-1  -2.155204788382293E1  -9.344781044163931   6.924091058238500E1  -9.364586095559849   6.927515256664091E1  -5.369203518036568E-1  -1.863678449777411E1  
 4.600000000000000E8    -6.101176045867648E-1  -2.201696622908840E1  -9.196353350729819   6.854995352759424E1  -9.201306725956714   6.871592344004193E1  -5.187099471254957E-1  -1.929081816027076E1  
 4.700000000000000E8    -6.336870396630626E-1  -2.274932045021005E1  -9.038754386914489   6.807013134245570E1  -9.048697944644902   6.822954849773758E1  -5.517526635598474E-1  -1.927569713929033E1  
 4.800000000000000E8    -6.078897798327649E-1  -2.311028856862520E1  -8.861890908281712   6.786236843647563E1  -8.861998563374995   6.789703463799675E1  -6.026412255816167E-1  -1.990139374480931E1  
 4.900000000000000E8    -6.616566473910139E-1  -2.361719520849947E1  -8.686328297556631   6.730432003359839E1  -8.705250339755228   6.742157750986611E1  -5.839060667726200E-1  -2.041982120733024E1  
 5.000000000000000E8    -7.262032400402741E-1  -2.406060851994465E1  -8.595549789231004   6.706248107154674E1  -8.588339782877490   6.707209341284249E1  -5.877357919210220E-1  -2.027078231090160E1  
 5.100000000000000E8    -6.941327882520842E-1  -2.407239940588975E1  -8.449834378822857   6.664963277662704E1  -8.461678244174824   6.661586731969160E1  -6.328478345009089E-1  -2.083940836805017E1  
 5.200000000000000E8    -7.275283867702550E-1  -2.434641914091124E1  -8.309288220526609   6.623170221310465E1  -8.301357864791818   6.623354987857245E1  -6.720356829792515E-1  -2.140467056578819E1  
 5.300000000000000E8    -7.248295035980447E-1  -2.510269024485053E1  -8.150831806824559   6.582805582607377E1  -8.153203069015339   6.586960768410060E1  -7.151002705689037E-1  -2.155496588793260E1  
 5.400000000000000E8    -7.371168058824279E-1  -2.540627929294807E1  -8.014981116383554   6.551237456004176E1  -8.018027412285301   6.543118902536830E1  -7.483714055195219E-1  -2.197639763429303E1  
 5.500000000000000E8    -7.824370920103045E-1  -2.584736391842758E1  -7.890695769261797   6.520891920563871E1  -7.892446540188870   6.521731755399848E1  -7.530571586154143E-1  -2.231400309827480E1  
 5.600000000000000E8    -8.231787359337753E-1  -2.612548523991858E1  -7.746967795457694   6.468792930298574E1  -7.737972958051108   6.486095066737413E1  -7.584259370434767E-1  -2.269430573291161E1  
 5.700000000000000E8    -8.138160093585537E-1  -2.652995385116188E1  -7.638923335398887   6.436111569123564E1  -7.637571972939684   6.436074159283520E1  -8.239874185916439E-1  -2.306208915596185E1  
 5.800000000000000E8    -8.598041855982047E-1  -2.703703951685832E1  -7.498869360240541   6.391886521555371E1  -7.504163335099027   6.400327565867677E1  -8.155390476761746E-1  -2.344761147125152E1  
 5.900000000000000E8    -8.870757468168200E-1  -2.740393059126270E1  -7.391126643755808   6.361297946538760E1  -7.398769930570611   6.358943795791297E1  -8.569328898097388E-1  -2.387024261914591E1  
 6.000000000000000E8    -9.538137555779135E-1  -2.798074809490777E1  -7.300922468189018   6.319240399597700E1  -7.290217701959658   6.332967756689524E1  -8.356651161962772E-1  -2.408508677778038E1  
 6.100000000000000E8    -9.255716268484918E-1  -2.826931415781347E1  -7.173397156458411   6.296891926049940E1  -7.170918558530415   6.283031907940543E1  -9.073570127010906E-1  -2.454498444408825E1  
 6.200000000000000E8    -9.807501433027845E-1  -2.872464983722290E1  -7.047241948097137   6.268101543443277E1  -7.066107018260066   6.256465084609454E1  -8.930154374849695E-1  -2.468516415720734E1  
 6.300000000000000E8    -1.025635226737176  -2.905599157075368E1  -6.972045971076092   6.219992328732077E1  -6.969798939108757   6.219163058813928E1  -9.402907152274690E-1  -2.493321547386060E1  
 6.400000000000000E8    -1.047020480452054  -2.946555613074494E1  -6.867050523385143   6.192583137028733E1  -6.849380225244032   6.186601066245582E1  -9.576723352425668E-1  -2.523211279209679E1  
 6.500000000000000E8    -1.060430026602414  -2.987623593635279E1  -6.737416929607261   6.162553758732544E1  -6.742892142736015   6.157475873913402E1  -9.863055163358343E-1  -2.534421663900399E1  
 6.600000000000000E8    -1.092817402624597  -3.009341155835249E1  -6.656823557270649   6.122759012195245E1  -6.641525295313787   6.126654199995089E1  -1.016408762116331  -2.579845824334114E1  
 6.700000000000000E8    -1.112334906916364  -3.038929779262154E1  -6.528969256152064   6.086337475538674E1  -6.522157930716923   6.082437415133436E1  -1.081714219904502  -2.621791713148248E1  
 6.800000000000000E8    -1.117007260030770  -3.092647046592287E1  -6.424819077682453   6.051663826339087E1  -6.444285127908183   6.054273990774625E1  -1.117729226607050  -2.633067301417018E1  
 6.900000000000000E8    -1.116980846065492  -3.136318467561208E1  -6.324396273316544   6.013074572181657E1  -6.331955892164564   6.014179700280831E1  -1.164166480764312  -2.667324330631541E1  
 7.000000000000000E8    -1.191584940378376  -3.168641768787869E1  -6.245622293985372   5.976876314880592E1  -6.244180430068893   5.986005351905855E1  -1.147807410822774  -2.711803492947369E1  
 7.100000000000000E8    -1.249038427040923  -3.212631400986406E1  -6.160990654762646   5.935270538943092E1  -6.161015264806058   5.938959623108647E1  -1.185241057341746  -2.759756771504283E1  
 7.200000000000000E8    -1.256473945288199  -3.262475514976587E1  -6.058530875842711   5.899658972489600E1  -6.067402894695683   5.901602006142451E1  -1.230417835306273  -2.776377585558617E1  
 7.300000000000000E8    -1.306115558354290  -3.284374963329434E1  -5.983803135794431   5.868481298134405E1  -5.996810970248017   5.869557445953365E1  -1.233275000619267  -2.812806993257126E1  
 7.400000000000000E8    -1.310584977127740  -3.321133431607331E1  -5.907810961539780   5.840129528977361E1  -5.910600986800212   5.844591893876240E1  -1.279392956774794  -2.840466889455071E1  
 7.500000000000000E8    -1.330016975981710  -3.371350564885606E1  -5.822493550125345   5.802110639544984E1  -5.832479050054089   5.811050297338130E1  -1.309475208336280  -2.863676041695761E1  
 7.600000000000000E8    -1.378818822988557  -3.385588772898039E1  -5.755387144263191   5.774588148646816E1  -5.747614027661816   5.777453718938332E1  -1.338778259273194  -2.906700797472698E1  
 7.700000000000000E8    -1.397482488769964  -3.429912770239247E1  -5.661253540631961   5.743260040417415E1  -5.664912547393723   5.750962889812726E1  -1.364301773604570  -2.923597415252907E1  
 7.800000000000000E8    -1.443788194209741  -3.470765905119143E1  -5.572771363531615   5.711691630395425E1  -5.582126683816774   5.715142410199861E1  -1.406684540735268  -2.951970676310548E1  
 7.900000000000000E8    -1.465869825510131  -3.483525280469068E1  -5.501190809834839   5.690774454193598E1  -5.519324283773813   5.686950570441548E1  -1.436412816673463  -2.968922634791780E1  
 8.000000000000000E8    -1.512958899783876  -3.524206037531557E1  -5.422530871992378   5.647438964805186E1  -5.423291411051780   5.661492368387767E1  -1.448173527720981  -3.011387708446581E1  
 8.100000000000000E8    -1.529560329326240  -3.569105499854472E1  -5.336242278690671   5.623280415516260E1  -5.351940745779188   5.616330104851032E1  -1.512883926372858  -3.030923873962853E1  
 8.200000000000000E8    -1.574983565743863  -3.604500474331449E1  -5.270849054841846   5.586984389414366E1  -5.271498644097279   5.589457219754403E1  -1.530661227636001  -3.066109063213549E1  
 8.300000000000000E8    -1.607173945627563  -3.637197813907613E1  -5.190736984253458   5.556476677667823E1  -5.205788246313952   5.556647043564851E1  -1.562614045144374  -3.103339835817228E1  
 8.400000000000000E8    -1.633586469509636  -3.671516928856471E1  -5.130574543523992   5.527904083762345E1  -5.135387206603816   5.527709542386999E1  -1.593956553362500  -3.122368063498348E1  
 8.500000000000000E8    -1.663079733471404  -3.705737258320123E1  -5.072765039769988   5.495799398871871E1  -5.062091712597581   5.500334849361849E1  -1.630123866044974  -3.154646539588663E1  
 8.600000000000000E8    -1.669591878930708  -3.730849605015528E1  -4.992415912049229   5.461627773308884E1  -4.993856273591734   5.455862409946939E1  -1.677041063507599  -3.196826727269387E1  
 8.700000000000000E8    -1.721690247497552  -3.766700395897952E1  -4.937294142132572   5.424470464084299E1  -4.946384709614470   5.429434937633645E1  -1.689611314297343  -3.218498025902431E1  
 8.800000000000000E8    -1.725555157167696  -3.805900406180899E1  -4.867619293649349   5.402182230494901E1  -4.882881909809711   5.411215820265135E1  -1.734072513902895  -3.230143973781198E1  
 8.900000000000000E8    -1.769042977810441  -3.817686683443000E1  -4.800370791795989   5.373869718847439E1  -4.808598366485932   5.376426114074099E1  -1.749739069326405  -3.283751649629448E1  
 9.000000000000000E8    -1.819975736281988  -3.851396135708074E1  -4.747559516862041   5.340928928049696E1  -4.742795042598000   5.352932529794473E1  -1.776606097110234  -3.300522599197791E1  
 9.100000000000000E8    -1.848028189121882  -3.883618293161715E1  -4.680745139301285   5.321653943293427E1  -4.684922827444800   5.322464328412337E1  -1.825399737046414  -3.322261662879865E1  
 9.200000000000000E8    -1.864696467913237  -3.913766161614149E1  -4.619640858694712   5.287393815338261E1  -4.635392318060545   5.293171056998460E1  -1.870377330895292  -3.346828892177324E1  
 9.300000000000000E8    -1.902236107067103  -3.944563446141537E1  -4.564064092644824   5.267849721662580E1  -4.562027336301604   5.263470720377382E1  -1.907682874211171  -3.376058411607278E1  
 9.400000000000000E8    -1.933514500570491  -3.986682851022607E1  -4.488476637214228   5.230868457592221E1  -4.498557994378650   5.240537240293595E1  -1.931947015511527  -3.400876118882321E1  
 9.500000000000000E8    -1.960624243463340  -4.006567273377251E1  -4.432975713297237   5.207917914128831E1  -4.437706233960740   5.208976818665263E1  -1.976667453426423  -3.434560466154790E1  
 9.600000000000000E8    -1.998618501525570  -4.039972254428385E1  -4.389618527550745   5.180166324619307E1  -4.379995075181310   5.171654223359731E1  -2.006545505586505  -3.468391212967588E1  
