! Skyworks SMV1408-219 De-embedded S-Parameter Data																		
! Created  11-5-2013																		
! 2 Port Network Data																		
! Mounted on Board # SK41159-3 Rev 1 in Series, Cathode is connected to RF1 as Input( Pin 1) and Anode is connected RF2 as Output(Pin 2)																	
! Temperature = +25 °C																		
! RF traces and connectors are de-embedded using TRL calibration and standards																		
! Reference planes are package pins																		
! Pin 1 Input port (S-Port1), Pin 2 Output port (S-port2)																		
! Pin = 0 dBm, Bias: Vr = 2V																		
! Dev # 1

#  HZ   S   DB   R     50.00 
! Rohde & Schwarz ZVA24 4Ports - Version 2.90 - 1145.1110k26 SN: 100216
! Date: 2013-11-05 15:24:48
! Measurements: S11 S21 S12 S22 
! 
 1.000000000000000E7     7.727302904722303E-1   4.769996947025994  -3.594495803394035E1   9.528611868765904E1  -3.625899915786240E1   8.198536775159553E1  -9.356311996408285E-1  -5.320703532538693  
 2.000000000000000E7    -4.079732809644887E-1  -7.733233623379371E-1  -3.092374782208974E1   8.946418127041565E1  -3.036285577769013E1   8.927936132494888E1   1.667666565336803E-1   1.900013317819620E-1  
 3.000000000000000E7     1.449510330637772E-1   8.584753148812582E-2  -2.710984153751710E1   9.041102757547152E1  -2.714594992016796E1   8.934102425334484E1  -6.092408767927580E-2  -2.044743931692898  
 4.000000000000000E7     1.344464050462522E-3  -3.528652293994278  -2.470751152123842E1   8.684149382650273E1  -2.460279793511079E1   8.804436286641766E1   9.409557986051567E-2  -2.145401500121049  
 5.000000000000000E7    -1.251626602235683E-1  -5.387547085721381  -2.273226646821195E1   8.583127985752016E1  -2.267287871080222E1   8.547947791089788E1   1.982325693719662E-1  -3.305134243573924  
 6.000000000000000E7     4.585688216041296E-2  -5.288353379616208  -2.112708925154866E1   8.583036800481204E1  -2.105798137261172E1   8.447030775909191E1  -1.979658073780968E-2  -4.870269182630477  
 7.000000000000000E7    -1.070972667550767E-1  -7.007405799385456  -1.974709190164024E1   8.399186851293233E1  -1.976140103895051E1   8.418373952253063E1   6.293306651318531E-2  -4.932838114217653  
 8.000000000000000E7    -1.155223258520864E-1  -7.068185949504148  -1.875493697406394E1   8.325261694232509E1  -1.860394500654650E1   8.385233140109968E1   4.860802252686217E-3  -6.040604775544620  
 9.000000000000000E7    -5.428024939399943E-2  -6.392423573283769  -1.765582586885999E1   8.294634305882460E1  -1.770140328757259E1   8.310181750200812E1  -1.827947979523273E-1  -8.508509861318835  
 1.000000000000000E8    -1.154568452190443E-1  -8.253009697923275  -1.672666626200433E1   8.163497570792195E1  -1.676145133033181E1   8.247879077284107E1  -1.001052727656641E-1  -8.264393683531875  
 1.100000000000000E8    -6.289074499789482E-2  -9.676547135870482  -1.594333698047106E1   8.077445099117664E1  -1.592070302595483E1   8.147345133456500E1  -7.186050139134481E-2  -8.733956536644536  
 1.200000000000000E8    -1.417641484678267E-1  -1.048381785242270E1  -1.514019966820414E1   7.987559818513789E1  -1.512958599254576E1   8.070683651101511E1  -5.736206307835207E-2  -9.935325089862749  
 1.300000000000000E8    -9.092431683156259E-2  -1.092709938963385E1  -1.449127851098857E1   7.958653219254649E1  -1.455729497389820E1   7.973526387043698E1  -2.020572462507266E-1  -1.095907869120761E1  
 1.400000000000000E8    -1.992148127960770E-1  -1.201057769951893E1  -1.384993934877129E1   7.821748369817426E1  -1.388809935557921E1   7.851208209210137E1  -9.545543018587785E-2  -1.183404646295602E1  
 1.500000000000000E8    -2.016283312767674E-1  -1.311834291358736E1  -1.330321981687586E1   7.765125428421051E1  -1.334003037199056E1   7.742558622114984E1  -1.737385163516304E-1  -1.257590187663952E1  
 1.600000000000000E8    -2.494957143027906E-1  -1.337901750650832E1  -1.283767805583928E1   7.679929844026562E1  -1.277428546396765E1   7.699072968166711E1  -1.657665784156643E-1  -1.356472345809466E1  
 1.700000000000000E8    -2.279038331494436E-1  -1.436795938899051E1  -1.229403987914688E1   7.637662531423119E1  -1.230378504912047E1   7.612238953149183E1  -2.427605450176234E-1  -1.436135108116931E1  
 1.800000000000000E8    -2.466082594418289E-1  -1.572070136605205E1  -1.183529167999303E1   7.533116248369251E1  -1.182713820875287E1   7.536381193108286E1  -2.396444062882110E-1  -1.466346836501743E1  
 1.900000000000000E8    -2.782539615204443E-1  -1.591920599825306E1  -1.140436694624378E1   7.477244451357248E1  -1.142887669514002E1   7.480154453450363E1  -3.178783085633379E-1  -1.575006740891390E1  
 2.000000000000000E8    -2.814659167715194E-1  -1.697645138033085E1  -1.097947056486941E1   7.390802639320246E1  -1.097150896028365E1   7.402060482410084E1  -3.258214000206594E-1  -1.638454094391267E1  
 2.100000000000000E8    -3.276602880607539E-1  -1.761730462639105E1  -1.056593062636236E1   7.350119574750600E1  -1.057162547354783E1   7.336609723462061E1  -3.401005164174005E-1  -1.712866649694214E1  
 2.200000000000000E8    -3.372490271024024E-1  -1.820820472870760E1  -1.016705239492711E1   7.290199141896541E1  -1.020665232466391E1   7.286552100134237E1  -3.455869107163976E-1  -1.775533750569259E1  
 2.300000000000000E8    -3.614249884747106E-1  -1.960373294405476E1  -9.827476049042119   7.173760465461717E1  -9.842801462262115   7.192049590059679E1  -4.380721330609491E-1  -1.824248062287930E1  
 2.400000000000000E8    -4.336385215275730E-1  -2.010444622898484E1  -9.539771021966626   7.111822941622275E1  -9.506603361123238   7.136114423963900E1  -4.457183257840521E-1  -1.911786899782119E1  
 2.500000000000000E8    -5.136581950691486E-1  -2.072926639895978E1  -9.185295957864685   7.045075185474045E1  -9.206677505463587   7.026226921624115E1  -4.512230219857095E-1  -2.017903700574689E1  
 2.600000000000000E8    -4.958039105384151E-1  -2.138793537887434E1  -8.900076516627680   6.975332235598626E1  -8.924407411220789   6.969360217633737E1  -5.502009395763921E-1  -2.093263398980086E1  
 2.700000000000000E8    -5.506972637971436E-1  -2.233308980114273E1  -8.615289507120775   6.897408101097911E1  -8.618905081355445   6.898854463138515E1  -5.555525174885547E-1  -2.165104646155651E1  
 2.800000000000000E8    -6.162444094057120E-1  -2.316212537297015E1  -8.344354715358568   6.815154211517778E1  -8.321673385499913   6.809413512529166E1  -5.606725610445557E-1  -2.248020596934542E1  
 2.900000000000000E8    -6.606740340996820E-1  -2.406481551310967E1  -8.086712070576757   6.730865709117430E1  -8.097963735698439   6.738091185434631E1  -6.505845492521137E-1  -2.311585147645710E1  
 3.000000000000000E8    -6.767031761641826E-1  -2.451210415118477E1  -7.827096521214962   6.683202369045921E1  -7.852368486681117   6.699506068812251E1  -6.940872585503740E-1  -2.365699970835995E1  
 3.100000000000000E8    -7.130570817332097E-1  -2.530252863767750E1  -7.595479625946448   6.613715620277176E1  -7.629710852130780   6.613276548233324E1  -7.639408926574887E-1  -2.442809914515103E1  
 3.200000000000000E8    -8.189402778342637E-1  -2.602585508112255E1  -7.382808048692747   6.543133886245443E1  -7.384904771087848   6.542993814274541E1  -7.510741684291313E-1  -2.522347119701785E1  
 3.300000000000000E8    -8.032549172907214E-1  -2.702502706401766E1  -7.127229350909499   6.471805975875681E1  -7.156579130516228   6.479139245044468E1  -8.188008980570454E-1  -2.562534940909325E1  
 3.400000000000000E8    -8.556830598513883E-1  -2.749442418831194E1  -6.936303974804372   6.431001890859656E1  -6.956462659725930   6.432479963691949E1  -8.724539575396969E-1  -2.610909652830194E1  
 3.500000000000000E8    -8.868127929945174E-1  -2.820046601651576E1  -6.710216425576361   6.344162226228169E1  -6.709635569132818   6.373842262402126E1  -9.013220083424655E-1  -2.705525150083318E1  
 3.600000000000000E8    -9.376291707421275E-1  -2.916655278009348E1  -6.536892163006529   6.260971197836835E1  -6.494135026372705   6.303424056627857E1  -9.462303692275718E-1  -2.751094490234174E1  
 3.700000000000000E8    -9.689573763515483E-1  -2.945424883001011E1  -6.338700389158298   6.212002444903027E1  -6.324744502087092   6.242061607804785E1  -1.027584358619697  -2.838893022201420E1  
 3.800000000000000E8    -1.226501129866106  -3.012907529410356E1  -6.306019995007071   5.982218824078534E1  -6.338317375001585   5.975376212666495E1  -1.174673722881183  -2.804681177466588E1  
 3.900000000000000E8    -1.309404879282860  -3.100609876942855E1  -6.171888459233367   5.932683653445168E1  -6.156845280188037   5.930633918764789E1  -1.177616091828912  -2.840784448226696E1  
 4.000000000000000E8    -1.377360891970794  -3.166365181915592E1  -6.000906765527208   5.872044046832045E1  -6.001317447754814   5.864450894907696E1  -1.242653195539951  -2.893601212506992E1  
 4.100000000000000E8    -1.331636536401230  -3.210491894963861E1  -5.854126728800207   5.814637565428678E1  -5.869455101780355   5.821259170274576E1  -1.401608700645062  -2.967739820159167E1  
 4.200000000000000E8    -1.443554937632868  -3.323697562689726E1  -5.682999998450868   5.721390396862863E1  -5.694970494042744   5.731808357976589E1  -1.404713985083564  -3.009667673049650E1  
 4.300000000000000E8    -1.453847805077713  -3.375017716609017E1  -5.531392610019352   5.704485693599266E1  -5.555757525598731   5.709760069592446E1  -1.489315574711486  -3.068186777568076E1  
 4.400000000000000E8    -1.535748167226481  -3.412956881577907E1  -5.397471840342143   5.639177641737426E1  -5.419015878592300   5.620601218958878E1  -1.507221638309311  -3.159922854953815E1  
 4.500000000000000E8    -1.601291525494601  -3.469053189987628E1  -5.261844088201316   5.603179772536061E1  -5.277808510551362   5.598155178721914E1  -1.565472145350367  -3.175644473024408E1  
 4.600000000000000E8    -1.684450418089118  -3.523221724556069E1  -5.146283884557095   5.526510645413423E1  -5.144312446490807   5.526675841012408E1  -1.577739408181086  -3.250441742784932E1  
 4.700000000000000E8    -1.741923996620731  -3.622495944510649E1  -5.024133481352079   5.451862466318761E1  -5.026164214608142   5.459616187886081E1  -1.641825557519008  -3.270805064349596E1  
 4.800000000000000E8    -1.751336643495548  -3.668451647197120E1  -4.882275321279764   5.423243275605105E1  -4.882192125825297   5.416959789495786E1  -1.739719822763968  -3.341019897724603E1  
 4.900000000000000E8    -1.837482012938055  -3.738703338679878E1  -4.739855647856179   5.346740362620425E1  -4.764383053795481   5.357586727443110E1  -1.760344062855528  -3.403217953740759E1  
 5.000000000000000E8    -1.925857596989486  -3.800216165613506E1  -4.670828424718670   5.304895968680854E1  -4.669804511115761   5.309245407406824E1  -1.787793702104051  -3.407028221918751E1  
 5.100000000000000E8    -1.932036800780696  -3.811809929640526E1  -4.562743165432463   5.251594395312062E1  -4.569962482054689   5.253807394786642E1  -1.871155356405787  -3.472026080877451E1  
 5.200000000000000E8    -2.005356360296115  -3.853371888869829E1  -4.464134894684032   5.199631399141579E1  -4.455840286685744   5.194645654069536E1  -1.940603565263821  -3.549573911812755E1  
 5.300000000000000E8    -2.026783348358266  -3.941474610511000E1  -4.330571040714922   5.144400714489380E1  -4.344752635978907   5.149736491055495E1  -2.035735023436393  -3.572440232641370E1  
 5.400000000000000E8    -2.085194986890997  -3.990082035006878E1  -4.239643730675812   5.096570054743421E1  -4.230595668796938   5.093223517259341E1  -2.083001055614213  -3.622990789552522E1  
 5.500000000000000E8    -2.150707546806241  -4.037979186206131E1  -4.134900211654126   5.057599436544360E1  -4.144244070101602   5.057760469062088E1  -2.127368817548897  -3.675892214984503E1  
 5.600000000000000E8    -2.250621732993821  -4.081509803244180E1  -4.045996124724651   4.991768186158289E1  -4.036461934723866   5.005923086256889E1  -2.183886582703606  -3.728690121900849E1  
 5.700000000000000E8    -2.264696728323439  -4.139614919477595E1  -3.959992269612410   4.942186245087589E1  -3.958288806484575   4.939045674266592E1  -2.265690189784125  -3.777514357811044E1  
 5.800000000000000E8    -2.340197013909113  -4.193068266524625E1  -3.850814916270963   4.895046201997169E1  -3.862522019814852   4.892626774687388E1  -2.300301847557545  -3.825692674284360E1  
 5.900000000000000E8    -2.404249690487633  -4.245497225842560E1  -3.776925710758610   4.847180731856597E1  -3.789490911912132   4.847410936713860E1  -2.375107393358569  -3.873482254204699E1  
 6.000000000000000E8    -2.491499723521324  -4.310165858669051E1  -3.710257774743435   4.804192335416452E1  -3.709700393578945   4.809837865516779E1  -2.381573454210284  -3.902033437576426E1  
 6.100000000000000E8    -2.504870672081856  -4.354071126404017E1  -3.618803360769361   4.764595061150703E1  -3.628768513943694   4.763289454483043E1  -2.498663201107432  -3.949677784269140E1  
 6.200000000000000E8    -2.603039897892873  -4.408888771085319E1  -3.537211971661515   4.728274428036752E1  -3.550412774910321   4.725544315241361E1  -2.509913070682279  -3.971506566736287E1  
 6.300000000000000E8    -2.678235385716402  -4.453991716043840E1  -3.486164288596155   4.668836785728568E1  -3.489813383685334   4.672695924564331E1  -2.595115983483952  -4.007262689619665E1  
 6.400000000000000E8    -2.719426039030445  -4.505627010484030E1  -3.398650682595008   4.631654115543461E1  -3.401426112481473   4.634259185593989E1  -2.647798716493585  -4.042305091103319E1  
 6.500000000000000E8    -2.778304896547027  -4.549907523511046E1  -3.308414966509426   4.594587157551654E1  -3.324135771757056   4.590241539046912E1  -2.708179512213348  -4.069677917943923E1  
 6.600000000000000E8    -2.846717288376527  -4.583992263945908E1  -3.261033589167957   4.541508059837698E1  -3.270598504712287   4.550630788366508E1  -2.801240913941137  -4.119918679099853E1  
 6.700000000000000E8    -2.911340389708399  -4.620619560260901E1  -3.177485790663055   4.501385623066621E1  -3.180115776693234   4.495052384266545E1  -2.889300049754466  -4.176486403170486E1  
 6.800000000000000E8    -2.958131055446744  -4.677300191685960E1  -3.110858599910940   4.462345536625472E1  -3.114564695878848   4.465269830438459E1  -2.945203966015832  -4.187729225419810E1  
 6.900000000000000E8    -2.991238746883684  -4.734661715012665E1  -3.044854810377246   4.408976150229962E1  -3.054854852057377   4.420100760911464E1  -3.040790509840619  -4.229442364238081E1  
 7.000000000000000E8    -3.082944223373194  -4.768173687931057E1  -2.986287125342835   4.371603125842390E1  -2.997752539336938   4.379202843953136E1  -3.058261030420064  -4.283361978510604E1  
 7.100000000000000E8    -3.179963926217206  -4.815255712510511E1  -2.937030153633163   4.326392441056204E1  -2.935179379889309   4.330441923118801E1  -3.117903980126013  -4.335167998712467E1  
 7.200000000000000E8    -3.221897705143701  -4.872194273544798E1  -2.874988135799769   4.286495312559641E1  -2.880812741183303   4.283116230964636E1  -3.196509520570735  -4.356519733920501E1  
 7.300000000000000E8    -3.303384104141569  -4.903615655886053E1  -2.828987868119514   4.248826955253551E1  -2.841599200479953   4.251986515440428E1  -3.235364524919926  -4.394691840902810E1  
 7.400000000000000E8    -3.333208435938121  -4.946739173192213E1  -2.772606894850659   4.213827487085285E1  -2.785174681958174   4.220938589130278E1  -3.310582763328180  -4.430332992086023E1  
 7.500000000000000E8    -3.396874953049156  -5.003470996023471E1  -2.729537450058690   4.173509944622646E1  -2.733865302812121   4.183849643804127E1  -3.372103016365559  -4.449093957022005E1  
 7.600000000000000E8    -3.465618776905368  -5.017050203388033E1  -2.677979908303217   4.141636907347583E1  -2.671834154501319   4.146989320017512E1  -3.427384599749322  -4.498910384201809E1  
 7.700000000000000E8    -3.514780025107046  -5.061733418228381E1  -2.617228916075346   4.113736421049194E1  -2.622963706193958   4.111291677124326E1  -3.485183771419848  -4.525544183386636E1  
 7.800000000000000E8    -3.595374838432956  -5.112327824197937E1  -2.553259650525383   4.072175159296467E1  -2.565398597967235   4.070899115992106E1  -3.558566413287156  -4.554477840578173E1  
 7.900000000000000E8    -3.655180475410391  -5.134358960826371E1  -2.515318735425376   4.042449921431559E1  -2.521929597281835   4.040097791756949E1  -3.620699231499838  -4.576548637298895E1  
 8.000000000000000E8    -3.747310839232633  -5.181092299060590E1  -2.468682917852857   3.992778278117648E1  -2.464158585225279   4.003354087079073E1  -3.666890120265937  -4.621851020491290E1  
 8.100000000000000E8    -3.795278690937131  -5.232847440835890E1  -2.409594571546426   3.961966715915887E1  -2.426898127273682   3.959866650137798E1  -3.769885056358240  -4.641600821219961E1  
 8.200000000000000E8    -3.861598307482690  -5.266748045275058E1  -2.365604861283729   3.926308074530189E1  -2.377317446788422   3.923981730088830E1  -3.826695613574095  -4.689810145247195E1  
 8.300000000000000E8    -3.932373236667460  -5.305429011431111E1  -2.326123529697165   3.888712684796185E1  -2.333040866958305   3.889667906260473E1  -3.883751030421531  -4.723666820674378E1  
 8.400000000000000E8    -3.976802767684275  -5.342987991390649E1  -2.288451359058522   3.858157417751398E1  -2.294322354676041   3.864750016455839E1  -3.941327976482691  -4.743191574863600E1  
 8.500000000000000E8    -4.029872113555587  -5.381291028704789E1  -2.246678968145245   3.824116250507316E1  -2.246642803260193   3.828407788560298E1  -4.003046947395118  -4.781101617923731E1  
 8.600000000000000E8    -4.077138826461169  -5.406261301738971E1  -2.211670718389093   3.789951221102032E1  -2.211267980312510   3.787939822386157E1  -4.086986020533608  -4.821334264272657E1  
 8.700000000000000E8    -4.148544247279816  -5.436720045255915E1  -2.172873664864569   3.757174808183678E1  -2.178408490618311   3.760013267531929E1  -4.114304935933656  -4.843833846065314E1  
 8.800000000000000E8    -4.186192334817650  -5.484284628665289E1  -2.135611419408414   3.729993513561397E1  -2.139258120663494   3.737092028096230E1  -4.187619283735359  -4.859245622583825E1  
 8.900000000000000E8    -4.264106742747832  -5.499135264635889E1  -2.095625191733660   3.696585733799673E1  -2.101342560660666   3.701785819330954E1  -4.241070464864204  -4.909782343235057E1  
 9.000000000000000E8    -4.340308490645431  -5.534356112957093E1  -2.060439337187558   3.663620972761746E1  -2.061976759064091   3.671540858510871E1  -4.301105077402266  -4.930455669156196E1  
 9.100000000000000E8    -4.403238200541964  -5.571374840493272E1  -2.023513129297959   3.639524812575944E1  -2.027150654922793   3.646051797795416E1  -4.378864959550785  -4.945903430432898E1  
 9.200000000000000E8    -4.444871656824168  -5.599202041159628E1  -1.984302674826561   3.608971804367731E1  -1.992697333835837   3.612756507172604E1  -4.448744519271978  -4.974948285528176E1  
 9.300000000000000E8    -4.516419876791005  -5.642919928156287E1  -1.956960064629077   3.580371695510783E1  -1.948592304655412   3.579009763805615E1  -4.514105022120033  -5.005291662148684E1  
 9.400000000000000E8    -4.578111711734202  -5.680819986492136E1  -1.914780625681152   3.546712914819456E1  -1.919762447376032   3.554663510094646E1  -4.583563718755021  -5.030469311391386E1  
 9.500000000000000E8    -4.631121718063789  -5.708670853581327E1  -1.877531313015824   3.517268515984998E1  -1.889475453288027   3.517790923831085E1  -4.655951666981281  -5.068762043061810E1  
 9.600000000000000E8    -4.692527686547899  -5.740788608228813E1  -1.860529107234129   3.488950241203044E1  -1.847559335220110   3.490379208712262E1  -4.707766576053680  -5.096162312268747E1  
 9.700000000000000E8    -4.735132982329863  -5.781804557790398E1  -1.818408609514752   3.461805007197788E1  -1.822753512638786   3.459443656355055E1  -4.766979531060098  -5.125770826282002E1  
