! Skyworks SMV1408-219 De-embedded S-Parameter Data																		
! Created  11-5-2013																		
! 2 Port Network Data																		
! Mounted on Board # SK41159-3 Rev 1 in Series, Cathode is connected to RF1 as Input( Pin 1) and Anode is connected RF2 as Output(Pin 2)																	
! Temperature = +25 °C																		
! RF traces and connectors are de-embedded using TRL calibration and standards																		
! Reference planes are package pins																		
! Pin 1 Input port (S-Port1), Pin 2 Output port (S-port2)																		
! Pin = 0 dBm, Bias: Vr = 1.5V																		
! Dev # 1

#  HZ   S   DB   R     50.00 
! Rohde & Schwarz ZVA24 4Ports - Version 2.90 - 1145.1110k26 SN: 100216
! Date: 2013-11-05 15:26:12
! Measurements: S11 S21 S12 S22 
! 
 1.000000000000000E7     8.248725744760941E-1   3.477866999329798  -3.474193921279391E1   9.134486158143639E1  -3.582849925748549E1   8.081463429554520E1  -9.173988560145132E-1  -5.080096285359281  
 2.000000000000000E7    -3.149026126388959E-1  -1.241832409615246  -3.005805581897831E1   9.101727339691099E1  -2.972827582922746E1   8.549373919482183E1  -2.463678014441424E-2  -1.329734149703124  
 3.000000000000000E7     1.897506891512428E-1  -1.174936890009847  -2.614576261838673E1   8.924277851497443E1  -2.630727793076533E1   8.830241346994758E1  -1.109551818108858E-1  -2.334688076117076  
 4.000000000000000E7    -6.200090487391172E-2  -3.615367078912806  -2.398849253077897E1   8.759985653765411E1  -2.397836837274044E1   8.711691658534669E1  -1.457234525436410E-1  -2.906234483378822  
 5.000000000000000E7    -4.069640113913031E-2  -5.350736682242703  -2.185201646441866E1   8.598846228093784E1  -2.199764012164667E1   8.531711079133325E1   6.817469616055891E-2  -3.714420853654300  
 6.000000000000000E7     1.101977824742530E-1  -6.009525266658764  -2.021946713966876E1   8.508968217124902E1  -2.037187160449075E1   8.429511786146442E1  -8.465715877213235E-2  -4.875141948737721  
 7.000000000000000E7    -1.342608588481975E-1  -7.049288901511967  -1.899913845415884E1   8.391762017614065E1  -1.897774909502233E1   8.419493457013034E1   5.419724907923777E-2  -5.240411489741015  
 8.000000000000000E7    -6.053654277067697E-2  -7.233690999193270  -1.794256227593251E1   8.318730829077403E1  -1.783154825842359E1   8.347801454325258E1  -6.576887361629055E-3  -6.750385537903078  
 9.000000000000000E7    -4.933016766944347E-2  -7.160053812487528  -1.689144383488398E1   8.208733758728008E1  -1.692206602551586E1   8.248194272582948E1  -1.579099454310954E-1  -8.916829782346932  
 1.000000000000000E8    -1.412907552099718E-1  -8.787248060715607  -1.598856595555134E1   8.118435494756189E1  -1.597630599654415E1   8.166675379359461E1  -9.761514747352006E-2  -8.946661246601718  
 1.100000000000000E8    -8.569319533840759E-2  -1.024860839411018E1  -1.517374643925588E1   8.016438269601308E1  -1.516651111168422E1   8.057366671021165E1  -9.961083334109436E-2  -9.690808446184533  
 1.200000000000000E8    -1.825250661997157E-1  -1.158599077000919E1  -1.443566239340060E1   7.876137967472909E1  -1.437714247813360E1   7.957626394473269E1  -5.592954504865132E-2  -1.090364603885976E1  
 1.300000000000000E8    -1.232014960311491E-1  -1.212689344478636E1  -1.375769308256987E1   7.843282575997438E1  -1.378919275917081E1   7.871703958181401E1  -1.978036356552588E-1  -1.177463191816200E1  
 1.400000000000000E8    -2.312008661832397E-1  -1.324998238089198E1  -1.311322977972915E1   7.695002620389884E1  -1.312291074720697E1   7.766782945003124E1  -1.298381782699234E-1  -1.263403457722129E1  
 1.500000000000000E8    -1.918709295744033E-1  -1.390863325490870E1  -1.254576767078802E1   7.683766790108899E1  -1.255816358339367E1   7.644902903324621E1  -1.659135761278012E-1  -1.372236370342372E1  
 1.600000000000000E8    -2.961368553907102E-1  -1.434246948140528E1  -1.213729915991629E1   7.585571098443920E1  -1.208151380494512E1   7.561934611624486E1  -2.439299502654343E-1  -1.492070916568550E1  
 1.700000000000000E8    -2.831516437640701E-1  -1.553276395836473E1  -1.158271421887798E1   7.518993970507619E1  -1.156987585173856E1   7.481468942441725E1  -2.760838012125145E-1  -1.563911717833534E1  
 1.800000000000000E8    -2.693303343956236E-1  -1.685534072831139E1  -1.109431728290499E1   7.426798655873209E1  -1.113070905406393E1   7.427981318473917E1  -3.287578184489226E-1  -1.571234827938914E1  
 1.900000000000000E8    -3.135084674881397E-1  -1.713012252368447E1  -1.066880801552198E1   7.347528432316744E1  -1.068852299740660E1   7.342214223649570E1  -3.412947136357884E-1  -1.706387412511370E1  
 2.000000000000000E8    -3.413694152902990E-1  -1.842050568624518E1  -1.027422852205096E1   7.248241895386066E1  -1.029287926287426E1   7.267387053881954E1  -4.255476085625370E-1  -1.763749986002896E1  
 2.100000000000000E8    -3.977901211855639E-1  -1.918211686723292E1  -9.871134703918688   7.192251572573859E1  -9.915237617585834   7.183869897164227E1  -4.554210221605798E-1  -1.866135103104007E1  
 2.200000000000000E8    -4.290897506033438E-1  -1.977660979319879E1  -9.483784417838196   7.130360431989138E1  -9.528542774039130   7.126354020302553E1  -4.314698929443637E-1  -1.935917876390609E1  
 2.300000000000000E8    -4.555289564781906E-1  -2.122206376764791E1  -9.147189123134684   7.012718967385425E1  -9.152000699691969   7.019000625241664E1  -5.165005748879231E-1  -2.000243270221975E1  
 2.400000000000000E8    -5.151107820879641E-1  -2.177720444860617E1  -8.844794700424920   6.946171255066476E1  -8.808226064780669   6.962064731462617E1  -5.216234444174394E-1  -2.079610028909292E1  
 2.500000000000000E8    -6.143924119526327E-1  -2.243372503757304E1  -8.516201890430853   6.870902652491279E1  -8.547190799045053   6.859189620873586E1  -5.590331636641316E-1  -2.177958177505981E1  
 2.600000000000000E8    -5.889657726535449E-1  -2.315991443215755E1  -8.220934458629126   6.797962620468285E1  -8.270130163436377   6.804076812987032E1  -6.576993077530002E-1  -2.257996562327959E1  
 2.700000000000000E8    -6.642439338522895E-1  -2.415421810567943E1  -7.962631097198837   6.708097313931891E1  -7.993282368362768   6.724601621035096E1  -6.887164901199169E-1  -2.333541426900324E1  
 2.800000000000000E8    -7.292970181877194E-1  -2.498857439367295E1  -7.683485074023189   6.641330319563986E1  -7.666060451848021   6.628871981664955E1  -6.755915736671972E-1  -2.420826024360538E1  
 2.900000000000000E8    -7.807738274164880E-1  -2.582891918414946E1  -7.451577356809412   6.551448296164335E1  -7.447745670390048   6.555269866136003E1  -7.609936473527273E-1  -2.488856901004259E1  
 3.000000000000000E8    -8.040081264575543E-1  -2.644077001363844E1  -7.186116296462707   6.488025498149497E1  -7.214571981041537   6.509071575478599E1  -8.199928502947694E-1  -2.552244988980989E1  
 3.100000000000000E8    -8.728299660243213E-1  -2.724335739592103E1  -6.981366910952291   6.416032961048067E1  -7.013202565158000   6.420791775749900E1  -9.130930115525100E-1  -2.629325757062737E1  
 3.200000000000000E8    -9.675714764003899E-1  -2.809220206867577E1  -6.766241793364994   6.336549432878863E1  -6.761085076247150   6.338832127245393E1  -8.889443364054240E-1  -2.720460523491289E1  
 3.300000000000000E8    -9.555257956453600E-1  -2.901112345683961E1  -6.522178838142207   6.277793746368727E1  -6.559562522831855   6.279061394779796E1  -9.880052978088250E-1  -2.758187661003262E1  
 3.400000000000000E8    -1.017927431698893  -2.949257343421500E1  -6.329908037987876   6.231284604963693E1  -6.344739917453405   6.215768156078254E1  -1.029369253386313  -2.820552336403974E1  
 3.500000000000000E8    -1.053910182984431  -3.033496465980517E1  -6.114017240208061   6.129880391701854E1  -6.121520342156881   6.149913318987599E1  -1.075779213207658  -2.927950357973370E1  
 3.600000000000000E8    -1.131465483005496  -3.123471798940543E1  -5.957448531466681   6.054702221240414E1  -5.915054537971358   6.074617961349841E1  -1.133449460103618  -2.972495668877200E1  
 3.700000000000000E8    -1.159879260009054  -3.165697973146184E1  -5.764078673977651   5.997433000264298E1  -5.752399176881755   6.001401150498401E1  -1.215842881525425  -3.074717880419779E1  
 3.800000000000000E8    -1.443896277694808  -3.225070467802312E1  -5.752010967323535   5.770029556257829E1  -5.761993738784722   5.756406960578977E1  -1.366328552894354  -3.018427899983502E1  
 3.900000000000000E8    -1.503875609000350  -3.313733572612253E1  -5.596929380856238   5.717372886645482E1  -5.604203599537845   5.713609035638797E1  -1.386243026583208  -3.051226797350473E1  
 4.000000000000000E8    -1.593975341638352  -3.387160720284740E1  -5.455406807798584   5.649268806456905E1  -5.447529659834953   5.647984693889804E1  -1.452233620456701  -3.106774544876472E1  
 4.100000000000000E8    -1.537211302840537  -3.427683856004533E1  -5.299402820384207   5.594193129055829E1  -5.316053614513660   5.592480872357115E1  -1.611492513045669  -3.195729887671972E1  
 4.200000000000000E8    -1.690973245508256  -3.541273358447817E1  -5.155660931873413   5.500407963290543E1  -5.150840419166003   5.514652641057024E1  -1.611082362425153  -3.223449620407657E1  
 4.300000000000000E8    -1.689777607260074  -3.592446355607746E1  -5.008230378664338   5.484681938185863E1  -5.021989483375585   5.470911093510520E1  -1.711061035984653  -3.303782024443648E1  
 4.400000000000000E8    -1.773445368564287  -3.645353206240998E1  -4.865694029610000   5.404252130346276E1  -4.878027755248547   5.390667912388793E1  -1.733977974182724  -3.388243951340192E1  
 4.500000000000000E8    -1.843408041918244  -3.700039601144837E1  -4.733349748323554   5.368373707141213E1  -4.762814401237011   5.373500637144752E1  -1.818491609407844  -3.391420141737786E1  
 4.600000000000000E8    -1.924492055130572  -3.756165747685486E1  -4.618776631040412   5.293153814024836E1  -4.629103955452134   5.298326230933686E1  -1.835493733102982  -3.476785456261839E1  
 4.700000000000000E8    -2.015016329574332  -3.851874149432067E1  -4.527433650180502   5.219457074711748E1  -4.519382012216862   5.236366072706402E1  -1.905684251603895  -3.491002545321253E1  
 4.800000000000000E8    -2.026792690504025  -3.913476916256190E1  -4.395373821405710   5.178641089582948E1  -4.389725710710189   5.175887898717024E1  -2.012602644151792  -3.573560404915555E1  
 4.900000000000000E8    -2.129726636187447  -3.977323238300865E1  -4.262813142829844   5.107130021338250E1  -4.263764436733433   5.114830030052833E1  -2.027333576503027  -3.640154596448363E1  
 5.000000000000000E8    -2.203973751460137  -4.039692575953490E1  -4.181417561749784   5.065926286566641E1  -4.193114860543330   5.072932679918461E1  -2.074217860505206  -3.636760248346648E1  
 5.100000000000000E8    -2.214627444697037  -4.048863129370707E1  -4.080494345132370   5.011279846610270E1  -4.097884767563604   5.016193347350363E1  -2.160435915721322  -3.704473894453405E1  
 5.200000000000000E8    -2.283651262064725  -4.093207255880053E1  -3.979154448843269   4.961891124802875E1  -3.988230982792985   4.961543381948548E1  -2.238135968816700  -3.777309200340402E1  
 5.300000000000000E8    -2.336955433499893  -4.180664073137832E1  -3.870746261766556   4.903625417525864E1  -3.884192562488432   4.904752476171105E1  -2.340206303222918  -3.808390092762225E1  
 5.400000000000000E8    -2.390465270961296  -4.226806002796448E1  -3.776277488669702   4.857727155823728E1  -3.785989440185076   4.839982284826469E1  -2.407518257938391  -3.876235022130388E1  
 5.500000000000000E8    -2.471332621404469  -4.294418852540504E1  -3.689015905269828   4.803111384879610E1  -3.699177278573193   4.808173564260520E1  -2.451196894930156  -3.915492568909271E1  
 5.600000000000000E8    -2.572153564561210  -4.332778306343433E1  -3.596519072478392   4.741482698520619E1  -3.605168598234716   4.751233216171170E1  -2.517101266061293  -3.978299071701045E1  
 5.700000000000000E8    -2.593299268269110  -4.387969642713279E1  -3.520950237037303   4.692891027849521E1  -3.524623928280397   4.689260753460146E1  -2.599389371613399  -4.025314915028784E1  
 5.800000000000000E8    -2.683188727064877  -4.445423278243774E1  -3.421806290794152   4.641062383197577E1  -3.431543163450074   4.646925316961812E1  -2.635744045807858  -4.068909476671579E1  
 5.900000000000000E8    -2.751483895647705  -4.498858370771948E1  -3.351452907110002   4.595368935600013E1  -3.361279270934295   4.602400768795461E1  -2.719151378589601  -4.113047829188477E1  
 6.000000000000000E8    -2.847892243357213  -4.561523403569861E1  -3.293930535443598   4.549743688579860E1  -3.299116656522692   4.568327307554842E1  -2.737858715943203  -4.139857982620943E1  
 6.100000000000000E8    -2.865635144289986  -4.605731244828744E1  -3.209012731401448   4.513100182984414E1  -3.213852826740896   4.514568847334449E1  -2.844841959487225  -4.193566116568404E1  
 6.200000000000000E8    -2.962617438003672  -4.659270493553867E1  -3.122272843501715   4.475448183218417E1  -3.143413107664520   4.468534269849981E1  -2.871651544350988  -4.221265540086942E1  
 6.300000000000000E8    -3.044265637152102  -4.694773363939510E1  -3.084420009604478   4.423721153519027E1  -3.092028149940469   4.420003880510645E1  -2.961508460070253  -4.254460449662982E1  
 6.400000000000000E8    -3.100694230447550  -4.747208456404808E1  -3.008568490114581   4.386218105090561E1  -3.001245145426362   4.383193529113236E1  -3.017595137085972  -4.285070397217902E1  
 6.500000000000000E8    -3.175757503895993  -4.793091358675579E1  -2.932148344311483   4.348467016698266E1  -2.937474883669002   4.344499585264541E1  -3.093437169933695  -4.308373847431126E1  
 6.600000000000000E8    -3.244532321133947  -4.835891363497334E1  -2.887623116838411   4.292133016923020E1  -2.884494519785801   4.295906488117205E1  -3.180416800732359  -4.363530820406363E1  
 6.700000000000000E8    -3.310764358486309  -4.864183540172218E1  -2.799889923482422   4.254141749009978E1  -2.797213472504904   4.239793637532888E1  -3.277336134020461  -4.421517650648632E1  
 6.800000000000000E8    -3.358325944560137  -4.933223723826846E1  -2.738785436875546   4.206717822650946E1  -2.747902300556776   4.205780330194202E1  -3.350716879403597  -4.438097670410956E1  
 6.900000000000000E8    -3.396022919762827  -4.987608648137850E1  -2.674056931403468   4.157079098777897E1  -2.684400254586986   4.163342981697969E1  -3.444314912679850  -4.474495666152053E1  
 7.000000000000000E8    -3.504565566809842  -5.024582693453314E1  -2.632096246808376   4.118532271974392E1  -2.631448094317637   4.122430354988187E1  -3.468672652722426  -4.526775540851401E1  
 7.100000000000000E8    -3.595569305429177  -5.062688902336403E1  -2.578863686364668   4.080269319538236E1  -2.581314418851343   4.079682304295329E1  -3.533884994437351  -4.576482178954920E1  
 7.200000000000000E8    -3.646429350548572  -5.122847663485104E1  -2.526306360748634   4.039107223266701E1  -2.522914201710598   4.031447766305121E1  -3.609064755303130  -4.595807541452103E1  
 7.300000000000000E8    -3.725296891356084  -5.155453808302081E1  -2.475653129420476   3.997970434703300E1  -2.492347120559714   4.004334750679645E1  -3.654838250283972  -4.632602589568635E1  
 7.400000000000000E8    -3.760239678429927  -5.198108644255566E1  -2.428379127393920   3.967041015410104E1  -2.428791288811933   3.969073910609111E1  -3.729479402353043  -4.673247553889022E1  
 7.500000000000000E8    -3.817649743661193  -5.248683836612938E1  -2.378304693214620   3.928742732669383E1  -2.395469013695791   3.934178027772309E1  -3.804067410303209  -4.694365078288116E1  
 7.600000000000000E8    -3.900089525586926  -5.265878109667514E1  -2.340191100109565   3.896429169436868E1  -2.338587124624861   3.893074859675045E1  -3.867546241590730  -4.740964500789510E1  
 7.700000000000000E8    -3.958476763716156  -5.316152432805625E1  -2.283891664507822   3.860519247585461E1  -2.296226224308637   3.862190637939987E1  -3.929229963598729  -4.764733263919859E1  
 7.800000000000000E8    -4.050945148080266  -5.370549904269942E1  -2.231565638521475   3.816408725474840E1  -2.243121248551582   3.818633458818103E1  -4.009703917830264  -4.791101469257707E1  
 7.900000000000000E8    -4.121160385855156  -5.386222218707066E1  -2.197018201734124   3.793747152244164E1  -2.206989229809921   3.792992817883896E1  -4.081959135443770  -4.810625453032649E1  
 8.000000000000000E8    -4.212274430319377  -5.425583198597290E1  -2.155536090700672   3.749935000774729E1  -2.149716050042023   3.754582173887491E1  -4.126567028743486  -4.863554827384315E1  
 8.100000000000000E8    -4.261299376076419  -5.483218939069475E1  -2.103930022907035   3.713083063784384E1  -2.117144166164993   3.708010524479549E1  -4.238769446031268  -4.881753844241833E1  
 8.200000000000000E8    -4.341420416517374  -5.521719693039515E1  -2.066870160242483   3.673269694668955E1  -2.060231609041191   3.679846992585570E1  -4.289391721970077  -4.922697740935990E1  
 8.300000000000000E8    -4.410017331119672  -5.553148668161506E1  -2.021827988049679   3.644542589323001E1  -2.031582851139735   3.642900966351670E1  -4.357526030251059  -4.957878497919096E1  
 8.400000000000000E8    -4.458101570032940  -5.591473930418920E1  -1.990262929096381   3.612540748114181E1  -1.991770949323586   3.609776539908172E1  -4.419398044911982  -4.984129892737811E1  
 8.500000000000000E8    -4.521004781800659  -5.626316287356995E1  -1.960193430271131   3.580271725934218E1  -1.949421147917500   3.580566551650639E1  -4.486467719369261  -5.018654883428477E1  
 8.600000000000000E8    -4.567208299363764  -5.651539114201402E1  -1.915664478373521   3.545317497338299E1  -1.921954496588358   3.544118349943967E1  -4.572853436510449  -5.055320771312155E1  
 8.700000000000000E8    -4.644539004488248  -5.684306670688134E1  -1.887982151213731   3.510444384750925E1  -1.893030204442791   3.510686800774644E1  -4.605152048516350  -5.080130179668844E1  
 8.800000000000000E8    -4.692102449127196  -5.726384836794239E1  -1.859565022590626   3.486867776410201E1  -1.862480154218508   3.488999906152729E1  -4.687509477897032  -5.093950778640952E1  
 8.900000000000000E8    -4.772842011134379  -5.742259089215431E1  -1.818341550801208   3.455766481030755E1  -1.820202463738805   3.451116320578478E1  -4.742483541012818  -5.148922633858794E1  
 9.000000000000000E8    -4.853259080878240  -5.781089270256152E1  -1.791910178675728   3.421090162290036E1  -1.792947811858314   3.429991184017398E1  -4.813845347818850  -5.156226265158362E1  
 9.100000000000000E8    -4.913730087587372  -5.816990985085729E1  -1.753164546278877   3.399215881244590E1  -1.754389873479054   3.401539695448008E1  -4.894399499255752  -5.178189833303319E1  
 9.200000000000000E8    -4.959465322918695  -5.850108925692280E1  -1.720812790813348   3.364988834704758E1  -1.726054151126557   3.365909808270516E1  -4.969593985605501  -5.208484010033832E1  
 9.300000000000000E8    -5.037441926193082  -5.885921036618937E1  -1.690705608170402   3.339955830664527E1  -1.686601304893692   3.333633008636936E1  -5.037008579906372  -5.237493743370342E1  
 9.400000000000000E8    -5.106524185717747  -5.928534134461490E1  -1.655872718310864   3.303417584044718E1  -1.660125335078403   3.308474507133759E1  -5.100774685207026  -5.264169871030918E1  
 9.500000000000000E8    -5.167986536785097  -5.953657643536981E1  -1.622122774379542   3.277778754131791E1  -1.628562158356500   3.278692570729029E1  -5.180945790294115  -5.294771632886933E1  
 9.600000000000000E8    -5.230791510695149  -5.987039857656132E1  -1.607557856670530   3.249296889863025E1  -1.597423997402306   3.245503053926660E1  -5.243189928055376  -5.326182667392612E1  
 9.700000000000000E8    -5.272191137733121  -6.026270107613949E1  -1.566783924704036   3.222152005096190E1  -1.577990675441086   3.215444629315276E1  -5.308458660826915  -5.354391503745820E1  
