! Skyworks SMV1408-219 De-embedded S-Parameter Data																		
! Created  11-5-2013																		
! 2 Port Network Data																		
! Mounted on Board # SK41159-3 Rev 1 in Series, Cathode is connected to RF1 as Input( Pin 1) and Anode is connected RF2 as Output(Pin 2)																	
! Temperature = +25 °C																		
! RF traces and connectors are de-embedded using TRL calibration and standards																		
! Reference planes are package pins																		
! Pin 1 Input port (S-Port1), Pin 2 Output port (S-port2)																		
! Pin = 0 dBm, Bias: Vr = 20V																		
! Dev # 1

#  HZ   S   DB   R     50.00 
! Rohde & Schwarz ZVA24 4Ports - Version 2.90 - 1145.1110k26 SN: 100216
! Date: 2013-11-05 15:27:38
! Measurements: S11 S21 S12 S22 
! 
 1.000000000000000E7     9.087704470311067E-1   3.486300142760744  -4.754443586518961E1   8.256811143922650E1  -4.432890328152290E1   1.082040840580058E2  -8.291257081005118E-1  -3.669351477616750  
 2.000000000000000E7    -2.618227191648753E-1  -7.602017316156039E-1  -3.858907848681862E1   8.730197089563771E1  -3.790568776327520E1   8.744846021175768E1   1.433462118617426E-1   3.280010724565005E-1  
 3.000000000000000E7     2.876775921795217E-1   6.619664084881558E-1  -3.400637983425450E1   8.996617856417093E1  -3.503543364863816E1   8.957429122374876E1  -1.723684314169069E-1  -8.990494405859844E-1  
 4.000000000000000E7    -1.352866678176344E-1  -2.387936949717431  -3.225595818153668E1   8.895571863971479E1  -3.228392837687023E1   9.063378965024586E1   9.349871919073545E-2  -1.584293739881910  
 5.000000000000000E7    -1.131358463909561E-1  -2.855556453106118  -3.030465064503328E1   8.772143378655984E1  -3.030587720579531E1   8.834317979468645E1   1.628552866658517E-1  -9.764274375216423E-1  
 6.000000000000000E7     1.288863249613123E-1  -2.189923135162536  -2.857251960914291E1   8.935680755352691E1  -2.887107035189393E1   8.692742110632091E1  -1.074174767788201E-1  -1.157190972454626  
 7.000000000000000E7    -3.957391859889421E-2  -3.447244431595001  -2.735042410292627E1   8.743768648371247E1  -2.736534953201608E1   8.806821657370332E1   3.692217080537909E-2  -1.101370808544630  
 8.000000000000000E7    -5.030443035344632E-2  -3.304790295127132  -2.629457483958513E1   8.664168629504019E1  -2.616617150966518E1   8.878481391427745E1   2.579982745568734E-2  -1.988166458219188  
 9.000000000000000E7    -9.836500673622500E-2  -2.246745783965912  -2.533818932989190E1   8.756350817345442E1  -2.523990375066356E1   8.737751859675133E1  -9.072218761496138E-2  -3.976275264473941  
 1.000000000000000E8    -5.488694278669942E-2  -3.423890105948372  -2.432753333767105E1   8.664169445917349E1  -2.434029609111914E1   8.741942756625522E1  -6.923305443321198E-3  -3.270543372266777  
 1.100000000000000E8     2.283326705043759E-2  -4.327110047652378  -2.347654653780171E1   8.582431180871960E1  -2.348363866264254E1   8.677542038195733E1  -1.628639770587453E-2  -3.268941512671937  
 1.200000000000000E8    -5.795743871920508E-2  -4.902940644065612  -2.271402528537097E1   8.570332259326256E1  -2.266680466233273E1   8.637097667085193E1   6.433211961526218E-2  -4.311432785536134  
 1.300000000000000E8     2.921390695896641E-2  -4.694418963726935  -2.201755314265499E1   8.597501097591336E1  -2.205849417613919E1   8.583173734651066E1  -6.989113618202600E-2  -4.751997292690153  
 1.400000000000000E8    -5.885313072952952E-2  -5.321852940917974  -2.133409921296102E1   8.498212962515669E1  -2.135908846374370E1   8.536839543465929E1   4.107351985266196E-2  -4.938092294296039  
 1.500000000000000E8    -2.805935942159871E-2  -5.785504950627907  -2.078026744462643E1   8.515878643641479E1  -2.078647903566655E1   8.496918974479443E1   1.701325194844645E-2  -5.252252918821917  
 1.600000000000000E8    -7.698610558022224E-2  -5.530910539119782  -2.031311062919145E1   8.491010031375532E1  -2.023843024651388E1   8.469441755633284E1  -2.923641326405290E-2  -5.888189009941327  
 1.700000000000000E8    -5.275446068902404E-2  -6.375546191575639  -1.975202200410391E1   8.451349605494225E1  -1.970202933754988E1   8.451570360163531E1  -3.113350031040121E-2  -6.101584494962631  
 1.800000000000000E8    -2.544283976818848E-2  -6.907141091604152  -1.924486907680442E1   8.438559299302791E1  -1.923033210835806E1   8.435348768406352E1  -1.218254597701418E-2  -5.776066949221019  
 1.900000000000000E8    -1.567819783168481E-2  -6.996063475655127  -1.875715919115871E1   8.371298147908985E1  -1.878298414464479E1   8.375062324610387E1  -5.190943081607950E-2  -6.731043375783908  
 2.000000000000000E8    -1.252785437359328E-2  -7.615549302006878  -1.831753029282058E1   8.337004654762690E1  -1.832785883374024E1   8.364087510137753E1  -6.620063783719400E-2  -6.900552110786587  
 2.100000000000000E8    -1.107648192067942E-2  -7.730027373566974  -1.787866203607474E1   8.340188704192357E1  -1.792530321584883E1   8.339688525105802E1  -4.736837368396554E-2  -7.249987696903298  
 2.200000000000000E8    -1.677664162946670E-2  -8.174915588336463  -1.747617762357112E1   8.311066552411671E1  -1.754040581039106E1   8.324742943002478E1  -5.089171448648348E-2  -7.536197678068355  
 2.300000000000000E8    -7.371326714055050E-3  -8.812603331831424  -1.709682200380242E1   8.264991572256503E1  -1.708735702491210E1   8.277681797736865E1  -5.543661885032265E-2  -7.584348154980530  
 2.400000000000000E8    -3.384189312737148E-2  -8.918009085884446  -1.675257075181472E1   8.234775077151912E1  -1.674741462545078E1   8.248683659928165E1  -6.037788365871634E-2  -8.132123689133774  
 2.500000000000000E8    -7.811206807981280E-2  -9.096542147836944  -1.637983712923955E1   8.215147297416770E1  -1.639459359000820E1   8.216402615904555E1  -2.015140052148506E-2  -8.489561322021379  
 2.600000000000000E8    -2.949977326664258E-2  -9.493688588886396  -1.605618724532870E1   8.168821150643761E1  -1.611334911020192E1   8.185208404972863E1  -9.910176457649564E-2  -8.919419465966151  
 2.700000000000000E8    -4.132923485007913E-2  -9.863090048544589  -1.572142544849757E1   8.146411427104044E1  -1.577604495477331E1   8.145245661760181E1  -7.724166993932825E-2  -9.317941656811328  
 2.800000000000000E8    -8.449571822196776E-2  -1.039013776631673E1  -1.543987033678524E1   8.097409698150757E1  -1.541926351438844E1   8.095293748350478E1  -3.340085968407330E-2  -9.769019952547543  
 2.900000000000000E8    -1.016411668624515E-1  -1.074027502964711E1  -1.516673965791104E1   8.073520655234846E1  -1.515859454139833E1   8.063918381065501E1  -7.293818065882507E-2  -1.003360030849748E1  
 3.000000000000000E8    -9.069069193919629E-2  -1.113478926208560E1  -1.486982140267145E1   8.029213949076875E1  -1.488458259445027E1   8.057100571496201E1  -9.906728706290602E-2  -1.016328602042043E1  
 3.100000000000000E8    -9.018471490504799E-2  -1.135799273696838E1  -1.460924394840098E1   8.014357147576249E1  -1.464684545463324E1   8.002379372899333E1  -1.561929206970247E-1  -1.073658942177210E1  
 3.200000000000000E8    -1.349039339533540E-1  -1.183124118230249E1  -1.433944640129641E1   7.973033755548619E1  -1.434279527531620E1   7.979589003379324E1  -8.292933694025204E-2  -1.095018797808332E1  
 3.300000000000000E8    -8.147341111525476E-2  -1.229307238019796E1  -1.403323168081850E1   7.953600295892960E1  -1.409112550552438E1   7.954740750249003E1  -1.286077134506947E-1  -1.110582922913534E1  
 3.400000000000000E8    -8.255526971264021E-2  -1.246852975012885E1  -1.380070443572076E1   7.941593644986001E1  -1.384150889654545E1   7.930193570792044E1  -1.312367187535863E-1  -1.134595358392518E1  
 3.500000000000000E8    -9.098849971541467E-2  -1.281903128229491E1  -1.355932250999403E1   7.893377977998502E1  -1.356803345777491E1   7.927798215557378E1  -1.163175618799053E-1  -1.173819146871594E1  
 3.600000000000000E8    -1.176913269295338E-1  -1.353203050930869E1  -1.335978137893874E1   7.837909409553070E1  -1.333824406164379E1   7.873048518577512E1  -1.391622046049664E-1  -1.205562052876487E1  
 3.700000000000000E8    -9.991577598664474E-2  -1.338737686469536E1  -1.310148390368167E1   7.836795838710749E1  -1.311048732465920E1   7.843996251915787E1  -1.633287321329691E-1  -1.257237717244254E1  
 3.800000000000000E8    -2.571576459295334E-1  -1.426274393306770E1  -1.297576731865726E1   7.584420489475600E1  -1.297807296551715E1   7.576340962075325E1  -1.815352871729082E-1  -1.228436715726929E1  
 3.900000000000000E8    -2.741220087477428E-1  -1.482815999089897E1  -1.277952521314017E1   7.565425942751863E1  -1.279292226776964E1   7.565120042078250E1  -1.689308379381432E-1  -1.230604279878251E1  
 4.000000000000000E8    -3.174069516808607E-1  -1.521136885147134E1  -1.258904996335696E1   7.525914604774594E1  -1.259172672236768E1   7.527997754257370E1  -2.063163914438897E-1  -1.252030281494118E1  
 4.100000000000000E8    -2.153315829441778E-1  -1.527531960391078E1  -1.237998314582341E1   7.505113294110211E1  -1.240325171160071E1   7.492057057409201E1  -3.059437216766787E-1  -1.315741442640871E1  
 4.200000000000000E8    -2.892806948077638E-1  -1.615697983342245E1  -1.216457195405100E1   7.438982902327727E1  -1.219149894734536E1   7.458630724844893E1  -2.556974660204122E-1  -1.309456338261127E1  
 4.300000000000000E8    -2.902034325007789E-1  -1.629672867492025E1  -1.200838742921610E1   7.458291149233924E1  -1.200896218041654E1   7.441501742591532E1  -2.982015669650343E-1  -1.359365868226788E1  
 4.400000000000000E8    -3.078644068546358E-1  -1.670817142789607E1  -1.181080804763978E1   7.394828738054750E1  -1.181928805022990E1   7.401202871416948E1  -2.634532292223348E-1  -1.398519366437182E1  
 4.500000000000000E8    -3.272300679332894E-1  -1.681501170672487E1  -1.162942638094008E1   7.397182028707231E1  -1.165928361798245E1   7.405107962785468E1  -3.067969793417156E-1  -1.394105357746003E1  
 4.600000000000000E8    -3.608823942772730E-1  -1.714607992954574E1  -1.147483312061948E1   7.346606073839656E1  -1.148606079195141E1   7.355967037147876E1  -2.765233702598225E-1  -1.446786570199205E1  
 4.700000000000000E8    -3.875424885905259E-1  -1.786346480275478E1  -1.131548236873785E1   7.296220943601584E1  -1.130401952338324E1   7.310488107611302E1  -2.830048592643887E-1  -1.445284539588708E1  
 4.800000000000000E8    -3.473253638800699E-1  -1.812954063258220E1  -1.112599237417501E1   7.286201947088951E1  -1.112388432520539E1   7.291329585641933E1  -3.399627355985908E-1  -1.494851375382659E1  
 4.900000000000000E8    -4.004485742407093E-1  -1.847944022820497E1  -1.094825233922400E1   7.246149590200494E1  -1.096075739050319E1   7.254338785016741E1  -3.135376966763033E-1  -1.536325603074113E1  
 5.000000000000000E8    -4.419065714802763E-1  -1.895184370315808E1  -1.083813187333319E1   7.217354675317701E1  -1.083658543552396E1   7.224053443923137E1  -3.089211510453048E-1  -1.521010616389246E1  
 5.100000000000000E8    -4.030525424063202E-1  -1.888721768551876E1  -1.068620452955702E1   7.179792659017711E1  -1.068819421682991E1   7.191317615422172E1  -3.392800406149902E-1  -1.562222367259506E1  
 5.200000000000000E8    -4.182931050746515E-1  -1.903860178110264E1  -1.053425242613479E1   7.160012657332622E1  -1.053007759069894E1   7.156583208081179E1  -3.657326623737814E-1  -1.615161521777906E1  
 5.300000000000000E8    -4.101360233701213E-1  -1.963338082972548E1  -1.036619548855742E1   7.135153882288235E1  -1.036077023257370E1   7.126168602168174E1  -3.976323927770563E-1  -1.627113598053989E1  
 5.400000000000000E8    -4.098100110977558E-1  -1.998080670617893E1  -1.022022854096556E1   7.095432327161640E1  -1.022223900537174E1   7.085752776093089E1  -4.226649024776428E-1  -1.658131518380520E1  
 5.500000000000000E8    -4.370924094667656E-1  -2.030757075811100E1  -1.007891673012767E1   7.074453525039263E1  -1.007925348127888E1   7.073871719832630E1  -4.129688856617867E-1  -1.686898452183994E1  
 5.600000000000000E8    -4.767042439419968E-1  -2.052275745763221E1  -9.931333003806353   7.033804429352186E1  -9.943597735542303   7.047730043653674E1  -4.343183752644027E-1  -1.715414220996419E1  
 5.700000000000000E8    -4.536233412171652E-1  -2.090833663290617E1  -9.809511403963271   6.998783320265906E1  -9.815919262212173   7.001241914137522E1  -4.701549522622055E-1  -1.749615309150570E1  
 5.800000000000000E8    -4.904558037414223E-1  -2.131696509051617E1  -9.661659987136721   6.965998170082955E1  -9.667245174928409   6.971376104325312E1  -4.481904741971716E-1  -1.779703895475585E1  
 5.900000000000000E8    -5.149585277807728E-1  -2.160249596215349E1  -9.550349605808110   6.938729445572747E1  -9.547849709149160   6.938715297802864E1  -4.833261655430733E-1  -1.816497941013129E1  
 6.000000000000000E8    -5.617658654685056E-1  -2.208184091314523E1  -9.439940486014029   6.910678882557836E1  -9.440486519680785   6.922861751583115E1  -4.551800295482058E-1  -1.826180832012830E1  
 6.100000000000000E8    -5.268101163554321E-1  -2.231113112410882E1  -9.309882239275096   6.893009175025891E1  -9.296603292488038   6.887618452766802E1  -5.075649328601843E-1  -1.861929461713025E1  
 6.200000000000000E8    -5.810663499760512E-1  -2.274246490463736E1  -9.179913315310071   6.868455247615827E1  -9.186349292147686   6.858860895131190E1  -4.864779560952214E-1  -1.873955668680307E1  
 6.300000000000000E8    -5.983081580541398E-1  -2.300678346259280E1  -9.076188895382771   6.824175246650114E1  -9.082906810974054   6.827731494674390E1  -5.238873117740439E-1  -1.895281148149583E1  
 6.400000000000000E8    -6.183728365132050E-1  -2.331195134207808E1  -8.974823606358129   6.804670013262140E1  -8.958905579731285   6.809259041943392E1  -5.264077805104261E-1  -1.911562180133225E1  
 6.500000000000000E8    -6.127789899717089E-1  -2.367091925344084E1  -8.824672634518592   6.783285058743314E1  -8.842154353127574   6.779387277474956E1  -5.503648216898835E-1  -1.925530567236903E1  
 6.600000000000000E8    -6.450752513928580E-1  -2.383900406672329E1  -8.744810344097289   6.746325779601936E1  -8.744824991416788   6.758686151226915E1  -5.861686068506493E-1  -1.955414705028446E1  
 6.700000000000000E8    -6.390661610842847E-1  -2.403232359312649E1  -8.597476303340388   6.724641298666016E1  -8.608524834699878   6.713472758805679E1  -6.327624884666369E-1  -2.001568872518891E1  
 6.800000000000000E8    -6.491829089964288E-1  -2.450170439049490E1  -8.495236597489164   6.694118092817928E1  -8.504941759029871   6.689697714106362E1  -6.470507115412648E-1  -2.010718251524664E1  
 6.900000000000000E8    -6.345021616114384E-1  -2.485878070115588E1  -8.381041901521289   6.662693239802577E1  -8.385231519586986   6.658903616239893E1  -6.766837342406079E-1  -2.036738864457405E1  
 7.000000000000000E8    -6.997076251898419E-1  -2.514550089280922E1  -8.290813594271620   6.632668584515449E1  -8.293761645876655   6.637622599720967E1  -6.620067574472899E-1  -2.074474519476718E1  
 7.100000000000000E8    -7.442872378130800E-1  -2.552475199800910E1  -8.193184967066502   6.598512939073338E1  -8.192766070950471   6.597038673365189E1  -6.818990005771831E-1  -2.112029157604063E1  
 7.200000000000000E8    -7.435770443387881E-1  -2.596194545605283E1  -8.087426198542708   6.567511480656863E1  -8.092110676881205   6.560640411580746E1  -7.082063864758175E-1  -2.127236377818514E1  
 7.300000000000000E8    -7.835871754549691E-1  -2.620245968779121E1  -7.995880703399930   6.533973078899489E1  -8.015586268368876   6.536634079235915E1  -7.145512672315343E-1  -2.151645394936745E1  
 7.400000000000000E8    -7.787685971958308E-1  -2.646322185483854E1  -7.912458821500755   6.513507591167995E1  -7.922640322090094   6.508947156625713E1  -7.513319386752433E-1  -2.183696808708461E1  
 7.500000000000000E8    -7.899149228720007E-1  -2.692021577270145E1  -7.821792651439639   6.482841612850098E1  -7.826405819374261   6.487757194513135E1  -7.712601083689545E-1  -2.196924371323353E1  
 7.600000000000000E8    -8.286788305451924E-1  -2.700244579968189E1  -7.743046831665248   6.458487969918113E1  -7.734661369334222   6.454967030970580E1  -7.875256022957810E-1  -2.240085183013777E1  
 7.700000000000000E8    -8.322310439470655E-1  -2.735543772468093E1  -7.638462218963209   6.437561525687487E1  -7.641160752602898   6.438940243575573E1  -7.922749061425439E-1  -2.248417206351001E1  
 7.800000000000000E8    -8.555792637974695E-1  -2.767609005182487E1  -7.532432636978948   6.411831277641888E1  -7.545185373346693   6.412820613483669E1  -8.227075544896243E-1  -2.267084711145910E1  
 7.900000000000000E8    -8.684056682372526E-1  -2.782151846656947E1  -7.444226239409916   6.395994145139214E1  -7.472096198311674   6.390370023115392E1  -8.447545814579764E-1  -2.284448820422210E1  
 8.000000000000000E8    -9.156257345929223E-1  -2.813850144408596E1  -7.364149536791637   6.354401516628537E1  -7.357396831530081   6.366997996070900E1  -8.348587082299435E-1  -2.321351324350617E1  
 8.100000000000000E8    -9.096033669751789E-1  -2.857671810860671E1  -7.265199750582507   6.329906293827408E1  -7.281735864160014   6.327618406615478E1  -8.958208849754464E-1  -2.336533092382145E1  
 8.200000000000000E8    -9.505417390077556E-1  -2.881762865692337E1  -7.193916598575274   6.303548358415010E1  -7.196449838788788   6.306305278350708E1  -9.092282047620414E-1  -2.366642397568879E1  
 8.300000000000000E8    -9.757202674277158E-1  -2.910529306631696E1  -7.104382402567148   6.277182048863496E1  -7.107810104026764   6.272661031640406E1  -9.201738205036053E-1  -2.399510063004464E1  
 8.400000000000000E8    -9.835819293181184E-1  -2.947257576642459E1  -7.030985801029218   6.249355585495424E1  -7.034049485799059   6.253167527477160E1  -9.432189190653304E-1  -2.412487596638801E1  
 8.500000000000000E8    -9.974667484824532E-1  -2.979182537177064E1  -6.951635764696952   6.219468562563113E1  -6.950710995148992   6.221140744271336E1  -9.702518876110685E-1  -2.446437239694861E1  
 8.600000000000000E8    -9.987344661702305E-1  -2.996351527757782E1  -6.870957020413105   6.192865028007739E1  -6.871058643828633   6.185221309132878E1  -1.003629006846149  -2.482107488581976E1  
 8.700000000000000E8    -1.035601438738523  -3.027440219465378E1  -6.794432173445460   6.159251629943698E1  -6.807946825963941   6.169297134152594E1  -1.005738295242354  -2.499302304651303E1  
 8.800000000000000E8    -1.040790332817639  -3.063375612061505E1  -6.729240480545647   6.144217117882079E1  -6.744614254649032   6.143127602738376E1  -1.046453366438177  -2.509501264645810E1  
 8.900000000000000E8    -1.074389061949926  -3.074199027104324E1  -6.659102860132280   6.115068719731740E1  -6.655969204270622   6.122281656242780E1  -1.042187627587277  -2.555857843921512E1  
 9.000000000000000E8    -1.104439331246657  -3.103731931671756E1  -6.581652815858158   6.086494233393026E1  -6.587585244531798   6.094287539594248E1  -1.067372864919814  -2.571795053031397E1  
 9.100000000000000E8    -1.119206120736781  -3.128595160911366E1  -6.504331141765834   6.073388111993051E1  -6.513199387252629   6.075862407583590E1  -1.100806593219596  -2.583154510363634E1  
 9.200000000000000E8    -1.128717389888925  -3.152558279746044E1  -6.445490504070583   6.041510585353165E1  -6.447925235955260   6.048351361824568E1  -1.129097955901413  -2.610468853716757E1  
 9.300000000000000E8    -1.146873459045101  -3.186938968133233E1  -6.363276548591873   6.023569613261681E1  -6.372695822299382   6.017781587508870E1  -1.154680693728297  -2.636198074251691E1  
 9.400000000000000E8    -1.173627734109295  -3.217082304259782E1  -6.287852606946218   5.998722837235020E1  -6.298490600161896   5.997452719053970E1  -1.170703696643491  -2.661244029160238E1  
 9.500000000000000E8    -1.189341583475048  -3.236912223456611E1  -6.218549803876316   5.974249198994096E1  -6.229052897334634   5.973764188208936E1  -1.203399983125592  -2.683803571114784E1  
