! Skyworks SMV1408-219 De-embedded S-Parameter Data																		
! Created  11-5-2013																		
! 2 Port Network Data																		
! Mounted on Board # SK41159-3 Rev 1 in Series, Cathode is connected to RF1 as Input( Pin 1) and Anode is connected RF2 as Output(Pin 2)																	
! Temperature = +25 °C																		
! RF traces and connectors are de-embedded using TRL calibration and standards																		
! Reference planes are package pins																		
! Pin 1 Input port (S-Port1), Pin 2 Output port (S-port2)																		
! Pin = 0 dBm, Bias: Vr = 0V																		
! Dev # 1

#  HZ   S   DB   R     50.00 
! Rohde & Schwarz ZVA24 4Ports - Version 2.90 - 1145.1110k26 SN: 100216
! Date: 2013-11-05 15:24:36
! Measurements: S11 S21 S12 S22 
! 
 1.000000000000000E7     8.385709685453485E-1   2.841760867811007  -2.935032249719837E1   8.571840466611140E1  -3.007719913783244E1   8.688710475238541E1  -1.035360392186706  -6.598259498769704  
 2.000000000000000E7    -4.601334655847556E-1  -2.197161484634809  -2.550946574092405E1   9.031631431305405E1  -2.522336981107239E1   8.463039616321251E1   2.951782521454501E-2  -3.747840154205919  
 3.000000000000000E7     1.985609220390976E-1  -3.634488314319063  -2.162133663532218E1   8.629934738320365E1  -2.192833042285685E1   8.569471322385711E1  -1.798761707027871E-1  -5.404390200189331  
 4.000000000000000E7    -3.811023786488069E-2  -6.097573173723120  -1.931697247444880E1   8.470789722319515E1  -1.931625193789042E1   8.561817336457104E1  -5.547305557472108E-2  -5.034019467531810  
 5.000000000000000E7    -2.192953588233771E-1  -8.688762954611322  -1.734920412523407E1   8.204790121448525E1  -1.734075127715874E1   8.146893677325541E1   1.073037662880460E-1  -7.190415676631113  
 6.000000000000000E7    -2.941934553867109E-2  -9.664268106629788  -1.566558646413655E1   8.103143719466537E1  -1.583009582839099E1   8.038650435957241E1  -2.308518273902362E-1  -8.645119085894594  
 7.000000000000000E7    -2.116814045424566E-1  -1.164578328080194E1  -1.441782512148633E1   7.858593765222990E1  -1.451191548477731E1   7.870795885111693E1  -1.258253104581851E-1  -1.012671494765012E1  
 8.000000000000000E7    -2.032953856951456E-1  -1.244048005572830E1  -1.340635751474432E1   7.741591751690021E1  -1.325679802158601E1   7.749028680909093E1  -1.225895610209581E-1  -1.227808429963204E1  
 9.000000000000000E7    -2.546580368141471E-1  -1.346123142656626E1  -1.240008940659042E1   7.539524871525603E1  -1.243298342009068E1   7.610185648281890E1  -3.836621281690769E-1  -1.504848187120665E1  
 1.000000000000000E8    -3.635087829030141E-1  -1.507529481558291E1  -1.146692641712532E1   7.401958379052465E1  -1.150017312575182E1   7.474523168482328E1  -3.372000637729109E-1  -1.526611930030060E1  
 1.100000000000000E8    -3.649022235223664E-1  -1.731214261624176E1  -1.071285593735035E1   7.219697915914846E1  -1.075830775614784E1   7.294065198017361E1  -3.911560068825729E-1  -1.659537411259259E1  
 1.200000000000000E8    -5.146767117698520E-1  -1.913526725563765E1  -9.976541760025596   7.020217065800765E1  -1.005740705066581E1   7.170972176373478E1  -4.008069942245430E-1  -1.821473325120739E1  
 1.300000000000000E8    -4.846430745065052E-1  -2.006244981994392E1  -9.402063601908122   6.963368686462478E1  -9.503173727958851   7.057082165245427E1  -5.534828789349516E-1  -1.945041034154909E1  
 1.400000000000000E8    -6.145484626860108E-1  -2.145950065572342E1  -8.904395235423580   6.806531227761447E1  -9.016874619678696   6.883238289171172E1  -5.769959450905994E-1  -2.097898325151291E1  
 1.500000000000000E8    -6.575209093266097E-1  -2.249685547593465E1  -8.530359072193573   6.779445862046555E1  -8.518870172315406   6.757027822479047E1  -6.101127426475487E-1  -2.201717258517531E1  
 1.600000000000000E8    -7.706266227353996E-1  -2.315849674062291E1  -8.167892621840695   6.666350053912424E1  -8.094135878354029   6.654188575719606E1  -6.959352220865336E-1  -2.359854442890389E1  
 1.700000000000000E8    -8.122842869639610E-1  -2.478525787122517E1  -7.696184974548515   6.544008805542332E1  -7.682064588928203   6.538186381755980E1  -7.970682408751185E-1  -2.461400529114457E1  
 1.800000000000000E8    -8.745496469829243E-1  -2.613886855820259E1  -7.287474288979102   6.435491833082020E1  -7.310726614154984   6.453329179320970E1  -8.819062378464174E-1  -2.501019118409342E1  
 1.900000000000000E8    -9.562072148063675E-1  -2.737366924561303E1  -6.884412328947466   6.285584638272189E1  -6.917735689618324   6.344964465475704E1  -9.550090189730596E-1  -2.656599392007840E1  
 2.000000000000000E8    -1.053689832744860  -2.891804861753942E1  -6.511586404483527   6.157359356654497E1  -6.547685067194881   6.210828026962729E1  -1.079535078458058  -2.788079283257414E1  
 2.100000000000000E8    -1.171328958262124  -2.996716973147457E1  -6.167591068126088   6.072029477314510E1  -6.193479940603119   6.077504910531356E1  -1.173060263382176  -2.920938900608843E1  
 2.200000000000000E8    -1.215846453748255  -3.089097146227124E1  -5.834722736866251   5.960252833971976E1  -5.872695038512301   5.975768381292718E1  -1.243731018583310  -3.026046468445073E1  
 2.300000000000000E8    -1.298283827035513  -3.245264167941013E1  -5.589851937768295   5.840341683777193E1  -5.594791027483555   5.833628209108315E1  -1.379949477826274  -3.122623406069408E1  
 2.400000000000000E8    -1.426233605399742  -3.333140497058317E1  -5.374548461506910   5.749045115385280E1  -5.329817993937159   5.756388299498713E1  -1.427723470922250  -3.241075420924847E1  
 2.500000000000000E8    -1.554120712319304  -3.414631607508766E1  -5.085053761265415   5.662565108668844E1  -5.115365812434466   5.669715838800752E1  -1.479643947161741  -3.324967845984752E1  
 2.600000000000000E8    -1.600460115066814  -3.516745439320255E1  -4.863296744857435   5.561508084663129E1  -4.916684022390728   5.590454048844585E1  -1.632058178281779  -3.428555014699791E1  
 2.700000000000000E8    -1.701364052264116  -3.621560510994672E1  -4.639058258962900   5.476838878719938E1  -4.674445956908204   5.478851744674151E1  -1.698396121140539  -3.546835712371861E1  
 2.800000000000000E8    -1.826234703963369  -3.746927814678113E1  -4.446256082639776   5.360898017951368E1  -4.421011414222334   5.358871847895659E1  -1.765944951134298  -3.656460229460943E1  
 2.900000000000000E8    -1.934190015743213  -3.840598990768871E1  -4.274888961073774   5.256965514994312E1  -4.266949683288861   5.254639556766733E1  -1.930500386176383  -3.740356567260759E1  
 3.000000000000000E8    -2.015647986292918  -3.919382167011977E1  -4.078769452092264   5.183241704195943E1  -4.109329582205751   5.186594746047345E1  -2.051755865293937  -3.825675721915890E1  
 3.100000000000000E8    -2.141619154171147  -4.023791776816790E1  -3.919421592903019   5.094646622036198E1  -3.939619280196258   5.094940986730899E1  -2.161878996670824  -3.921225658332291E1  
 3.200000000000000E8    -2.281851193840939  -4.117056936360056E1  -3.751205319226076   5.002711180902113E1  -3.756211478069338   5.003725924254321E1  -2.199066971419945  -4.017013319868947E1  
 3.300000000000000E8    -2.318519919099970  -4.225468920960444E1  -3.561248267992307   4.925677838927270E1  -3.611860407685185   4.932430089388733E1  -2.344179762532504  -4.061933482454882E1  
 3.400000000000000E8    -2.443442971270860  -4.318187042332043E1  -3.398576321830726   4.827903180092366E1  -3.455304413544257   4.834954824370340E1  -2.443318627797883  -4.150401721230667E1  
 3.500000000000000E8    -2.608998588810299  -4.409327503932857E1  -3.263793825884263   4.714689253648988E1  -3.281751707339885   4.758501450964432E1  -2.583766178043474  -4.269122839797264E1  
 3.600000000000000E8    -2.694219596483026  -4.496629889381376E1  -3.180679009284414   4.650177665327741E1  -3.132743674233167   4.668631648519327E1  -2.697774239650005  -4.334796177289709E1  
 3.700000000000000E8    -2.758188858335147  -4.535941888026307E1  -3.038832926829258   4.598401712754286E1  -3.041899259428737   4.591290427948386E1  -2.833813921416387  -4.434724625829028E1  
 3.800000000000000E8    -3.098939368328321  -4.553291384026439E1  -3.119604594877498   4.419180530680082E1  -3.132611240695634   4.404031977723712E1  -3.032073513661103  -4.331464387673177E1  
 3.900000000000000E8    -3.193176982027849  -4.647561463094461E1  -3.008614707454663   4.360984320193316E1  -3.024062993431053   4.358007442133712E1  -3.081570601954973  -4.368130999078906E1  
 4.000000000000000E8    -3.326645073766966  -4.724980736931691E1  -2.911971438896924   4.289894767422769E1  -2.922196308701831   4.295691813437437E1  -3.184912057406431  -4.425306239229640E1  
 4.100000000000000E8    -3.330493337837829  -4.767980138008126E1  -2.822312597160569   4.232643469890486E1  -2.832039329439958   4.229587960736588E1  -3.376058339012891  -4.523355389088476E1  
 4.200000000000000E8    -3.508495756944960  -4.876306046226960E1  -2.719560460300382   4.142231910985446E1  -2.719064420690076   4.151791201911233E1  -3.433249068502707  -4.549589212874580E1  
 4.300000000000000E8    -3.566301147340333  -4.961590971144585E1  -2.608190473284819   4.100757825790667E1  -2.625248073879862   4.094309578855161E1  -3.597702904861056  -4.642005464344984E1  
 4.400000000000000E8    -3.705860394759181  -5.002815619710771E1  -2.514766093885678   4.027121995343727E1  -2.526269156270679   4.014990605579368E1  -3.666416223481029  -4.721457560561954E1  
 4.500000000000000E8    -3.822795550141116  -5.078418317159951E1  -2.430353322351657   3.973500706058903E1  -2.447574725200394   3.979837323577583E1  -3.790831858683919  -4.746613709058497E1  
 4.600000000000000E8    -3.946600419144034  -5.124395102354443E1  -2.363137600146967   3.901063355349947E1  -2.374438802206437   3.907723234840008E1  -3.855591800458798  -4.822942802900812E1  
 4.700000000000000E8    -4.058813355214374  -5.209983067863509E1  -2.305254117942889   3.837871522487809E1  -2.316927451246658   3.847458779448807E1  -3.957350413107789  -4.837734964136638E1  
 4.800000000000000E8    -4.108921047122887  -5.275911781897072E1  -2.211113865358336   3.795105044283977E1  -2.217750837543757   3.797656375646974E1  -4.082903165991577  -4.909876780410453E1  
 4.900000000000000E8    -4.253492953805155  -5.343774635085074E1  -2.129375725227311   3.723326795483121E1  -2.155631561333029   3.743223429870171E1  -4.164844453416285  -4.974203306507845E1  
 5.000000000000000E8    -4.371569169035428  -5.394607714267568E1  -2.096818521762986   3.690106777562713E1  -2.104321933559414   3.698023880052904E1  -4.238437178640860  -4.972893888188825E1  
 5.100000000000000E8    -4.415220672397777  -5.404896772936379E1  -2.030645273590596   3.640893186560531E1  -2.049307413962433   3.638715157519508E1  -4.366925107140941  -5.037690356181149E1  
 5.200000000000000E8    -4.531622090836920  -5.444176491716035E1  -1.978840441643736   3.590010276399882E1  -1.979595080314345   3.578576594596704E1  -4.486565541361145  -5.115908248310296E1  
 5.300000000000000E8    -4.609318284528357  -5.535337536027500E1  -1.901556879451629   3.533253782040114E1  -1.911646636615162   3.529407121902678E1  -4.611862883389990  -5.138910951423114E1  
 5.400000000000000E8    -4.709372867769514  -5.583670878670147E1  -1.855258507821422   3.483797887182097E1  -1.868589086672438   3.481407094851979E1  -4.736623084395384  -5.186142458232652E1  
 5.500000000000000E8    -4.825241951654927  -5.649819773425340E1  -1.790711523681181   3.428634847263717E1  -1.810135536975282   3.436649446223962E1  -4.814885888335241  -5.247079403897486E1  
 5.600000000000000E8    -4.975073666390816  -5.680634383520145E1  -1.732847106948027   3.378079609085042E1  -1.739324556323943   3.380511405565379E1  -4.909346346770914  -5.306767289991715E1  
 5.700000000000000E8    -5.040158059976692  -5.743416696912589E1  -1.692497885565194   3.322556832922600E1  -1.707009120953682   3.327704599806877E1  -5.050659301321662  -5.339577304276793E1  
 5.800000000000000E8    -5.169077086753221  -5.794966461269038E1  -1.627633593290077   3.279743695560239E1  -1.644145517479571   3.280132844076194E1  -5.116260359001126  -5.381205282553534E1  
 5.900000000000000E8    -5.265206170690189  -5.848455653335197E1  -1.598937026904495   3.234116719664910E1  -1.607816991269571   3.234588557773321E1  -5.224168893386048  -5.428319473945826E1  
 6.000000000000000E8    -5.370798698157477  -5.900157352890886E1  -1.563111510851221   3.200616718247295E1  -1.581515138135860   3.209730150079091E1  -5.261119073869923  -5.447574706959058E1  
 6.100000000000000E8    -5.422166800716606  -5.945941974991798E1  -1.520837038722902   3.163273756742619E1  -1.529069657938283   3.164192925371937E1  -5.405397853574605  -5.492872386869789E1  
 6.200000000000000E8    -5.549449364166184  -5.998261574561415E1  -1.464901510999349   3.128218768156067E1  -1.488664537907729   3.126520899090495E1  -5.458637254332178  -5.513339114679283E1  
 6.300000000000000E8    -5.658390691987762  -6.021914054673518E1  -1.447074316631772   3.085135962389684E1  -1.458955536802852   3.082049745842579E1  -5.573660668621783  -5.539923645626429E1  
 6.400000000000000E8    -5.755346167135903  -6.073250530871236E1  -1.408633425792340   3.050235418605106E1  -1.403052849111096   3.043749170445075E1  -5.665100681483359  -5.572577401330518E1  
 6.500000000000000E8    -5.854056386452688  -6.128011954831397E1  -1.348692235106267   3.005850414982149E1  -1.363189816755321   3.008206081875623E1  -5.776767933731692  -5.584680843193976E1  
 6.600000000000000E8    -5.968760313912423  -6.156453759876545E1  -1.340968990107360   2.959978178203428E1  -1.345141921746499   2.972658744735951E1  -5.909489255664178  -5.627173958063032E1  
 6.700000000000000E8    -6.064085138656675  -6.193086898225558E1  -1.284255397766967   2.920327867418251E1  -1.293096988394534   2.914518043830658E1  -6.038962555804041  -5.684799806384173E1  
 6.800000000000000E8    -6.144725675422013  -6.246826296006366E1  -1.252314611482788   2.883219259202230E1  -1.270698554738905   2.887027548317535E1  -6.148419446516091  -5.697380314496733E1  
 6.900000000000000E8    -6.220700380307799  -6.293094811829761E1  -1.221587642671137   2.845920174715369E1  -1.233814394986716   2.852327807653703E1  -6.278347116017149  -5.727252415421216E1  
 7.000000000000000E8    -6.353390530067038  -6.325978659427594E1  -1.204641274044063   2.808973344517282E1  -1.210556142131656   2.821637987431731E1  -6.324434896413140  -5.771563810737113E1  
 7.100000000000000E8    -6.463236366129025  -6.364522066015258E1  -1.176967136302186   2.772825049914967E1  -1.185648337033415   2.784237937095815E1  -6.410722996706493  -5.811316372676946E1  
 7.200000000000000E8    -6.541480646610071  -6.409129898006657E1  -1.148411339364598   2.740167770768544E1  -1.151207836555647   2.742254626723560E1  -6.500064052919418  -5.826589439115794E1  
 7.300000000000000E8    -6.637096932175898  -6.437466238704106E1  -1.125128330117011   2.710739236376260E1  -1.133391511438598   2.718729495868120E1  -6.561882860497965  -5.861981144578676E1  
 7.400000000000000E8    -6.690650127677202  -6.473852683731478E1  -1.096766003351005   2.685042524850324E1  -1.103875779858220   2.687170606760907E1  -6.664889562035858  -5.887473398479537E1  
 7.500000000000000E8    -6.785179642830950  -6.521251961748747E1  -1.080941849277054   2.648943835706700E1  -1.085913435454594   2.657229055538062E1  -6.760736212329612  -5.907469451811347E1  
 7.600000000000000E8    -6.894241729040988  -6.530467765812297E1  -1.062920705208934   2.623389008233115E1  -1.067069913004535   2.622360331141204E1  -6.865898212761961  -5.941655894113318E1  
 7.700000000000000E8    -6.974457652510443  -6.581169095777449E1  -1.022181482415877   2.595953087198572E1  -1.038856133154898   2.598871224178796E1  -6.947635044367677  -5.959181784546811E1  
 7.800000000000000E8    -7.105352074474094  -6.627882169970964E1  -9.937854939144133E-1   2.558182954637160E1  -9.942721082133409E-1   2.557975340410925E1  -7.050285649974577  -5.988327719792067E1  
 7.900000000000000E8    -7.193437233317890  -6.641091463006264E1  -9.747644544268408E-1   2.536704715053813E1  -9.877544907314128E-1   2.537749689600856E1  -7.156125386854189  -5.987706666787460E1  
 8.000000000000000E8    -7.313486430815924  -6.677654319392875E1  -9.469785563545125E-1   2.496813669321116E1  -9.525289948135289E-1   2.510441809186627E1  -7.232882852870340  -6.026716429719679E1  
 8.100000000000000E8    -7.402502705955385  -6.725971576364071E1  -9.238584320337502E-1   2.467996847449165E1  -9.374652222440001E-1   2.471220257705071E1  -7.370773010055080  -6.045721475499592E1  
 8.200000000000000E8    -7.497040939805029  -6.765113144815230E1  -9.048597461279297E-1   2.433523824374699E1  -9.230097903787421E-1   2.437708936398476E1  -7.465122093821882  -6.088523139606627E1  
 8.300000000000000E8    -7.586857897600751  -6.784510705214318E1  -8.851714656707751E-1   2.415621012414657E1  -8.979459174324035E-1   2.417357861688106E1  -7.545633387082035  -6.114634603486934E1  
 8.400000000000000E8    -7.643068340119574  -6.820676016058133E1  -8.672591935849375E-1   2.386415903464684E1  -8.794786016203541E-1   2.393894538796470E1  -7.617363351412147  -6.126905673752067E1  
 8.500000000000000E8    -7.727874365537436  -6.847435885914292E1  -8.473151110400735E-1   2.363003440261549E1  -8.533449221398765E-1   2.358496765363265E1  -7.701651607883197  -6.169274289019550E1  
 8.600000000000000E8    -7.796988077456978  -6.866276231185154E1  -8.411996256330958E-1   2.333371061155843E1  -8.391553841969848E-1   2.335171295298980E1  -7.798392791266772  -6.190564508227386E1  
 8.700000000000000E8    -7.879513200892199  -6.890462296778162E1  -8.175754013509292E-1   2.305412636644553E1  -8.245974657788532E-1   2.314370388977202E1  -7.850025702879125  -6.207057107022676E1  
 8.800000000000000E8    -7.951789254379817  -6.936579928355629E1  -8.069078946880018E-1   2.281597176538327E1  -8.133793788096919E-1   2.295048660431520E1  -7.953312904564313  -6.213641342668819E1  
 8.900000000000000E8    -8.056670565118141  -6.944036112371319E1  -7.859207649020025E-1   2.255367860510237E1  -7.882163915521627E-1   2.263152729850214E1  -8.036627288093543  -6.259073245272403E1  
 9.000000000000000E8    -8.157602667948838  -6.973907020755384E1  -7.699224385670149E-1   2.231357913698914E1  -7.718407640625417E-1   2.239459395513655E1  -8.130875489151540  -6.265661096776759E1  
 9.100000000000000E8    -8.257242431997815  -7.011037246148540E1  -7.515767137841185E-1   2.212308778277869E1  -7.512708906195760E-1   2.212972011475121E1  -8.234837459098856  -6.282528259378983E1  
 9.200000000000000E8    -8.318735554673856  -7.034688469522345E1  -7.332932056403876E-1   2.184232554876026E1  -7.409540501947658E-1   2.190315835570836E1  -8.335834099467013  -6.295208302372775E1  
 9.300000000000000E8    -8.430707650693634  -7.073047505159177E1  -7.216015004540377E-1   2.163105586686501E1  -7.240095590786022E-1   2.163287352354321E1  -8.435799856098639  -6.318171998749705E1  
 9.400000000000000E8    -8.516700452360302  -7.115965477205000E1  -6.972091708457990E-1   2.134886450577541E1  -7.116535980305220E-1   2.148006751565716E1  -8.516697984703150  -6.330859024333329E1  
 9.500000000000000E8    -8.598107112030958  -7.134763855525489E1  -6.882047234543636E-1   2.115816731904248E1  -6.957249447220509E-1   2.114963569490682E1  -8.606096306363801  -6.363504935720706E1  
 9.600000000000000E8    -8.674523164740707  -7.165296233106119E1  -6.841252804416894E-1   2.096263218073949E1  -6.784206618622138E-1   2.092127975875010E1  -8.687994960591427  -6.389580033389218E1  
 9.700000000000000E8    -8.727063713617689  -7.196337872397535E1  -6.568252380684457E-1   2.075905189685054E1  -6.702050593739808E-1   2.070348805377012E1  -8.771403624441245  -6.406821227140304E1  
