! Skyworks SMV1408-219 De-embedded S-Parameter Data																		
! Created  11-5-2013																		
! 2 Port Network Data																		
! Mounted on Board # SK41159-3 Rev 1 in Series, Cathode is connected to RF1 as Input( Pin 1) and Anode is connected RF2 as Output(Pin 2)																	
! Temperature = +25 °C																		
! RF traces and connectors are de-embedded using TRL calibration and standards																		
! Reference planes are package pins																		
! Pin 1 Input port (S-Port1), Pin 2 Output port (S-port2)																		
! Pin = 0 dBm, Bias: Vr = 30V																		
! Dev # 1

#  HZ   S   DB   R     50.00 
! Rohde & Schwarz ZVA24 4Ports - Version 2.90 - 1145.1110k26 SN: 100216
! Date: 2013-11-05 15:27:47
! Measurements: S11 S21 S12 S22 
! 
 1.000000000000000E7     1.163784103728336   3.914827555765097  -4.559840455231616E1   1.059042882543519E2  -4.418792536586599E1   7.953636275370776E1  -9.345379855903394E-1  -6.520473988963973  
 2.000000000000000E7    -1.810197090286751E-1   1.354989209676607E-1  -3.869435591855490E1   8.865469141562758E1  -3.943817420013154E1   8.940519649814661E1   2.349116788263222E-1  -1.276094210322535E-1  
 3.000000000000000E7     2.747328393394399E-1   6.543546083940470E-1  -3.563242899627714E1   9.167463864793419E1  -3.561329079232794E1   8.881291433063453E1  -2.455866847147321E-1  -5.281055622340775E-1  
 4.000000000000000E7    -1.262287114291366E-2  -1.748581384863298  -3.292739247597105E1   8.645309624664000E1  -3.328113924097237E1   9.232917197432289E1   1.257861618300349E-1  -6.554571420996830E-1  
 5.000000000000000E7    -1.659336725387218E-1  -2.256930407586857  -3.139632192217999E1   8.968340718817373E1  -3.112530700122255E1   8.762645447054099E1   1.608618152826290E-1  -1.320683937367679E-1  
 6.000000000000000E7     4.161281804101924E-2  -2.078765900793056  -2.955196020001995E1   8.912416461317180E1  -2.961809109551122E1   8.850013937673245E1  -6.245945578806262E-2  -1.286728451347933  
 7.000000000000000E7     2.063636389308815E-3  -3.051066605617043  -2.829450301741780E1   8.800498024401581E1  -2.818672854991127E1   8.821717715631407E1   1.118423670560739E-1  -1.345493671725224  
 8.000000000000000E7    -2.708537653737391E-2  -2.411924224758709  -2.717739432898738E1   8.851675530850943E1  -2.718017360204788E1   8.849454357633914E1   5.589990839485131E-2  -1.936308957304474  
 9.000000000000000E7     9.120498766711878E-4  -2.089058795946909  -2.617618779344098E1   8.697639627326687E1  -2.610195605463970E1   8.781641373806272E1  -1.012827220295169E-1  -3.732145008580915  
 1.000000000000000E8    -2.911055276820495E-2  -3.072200272679619  -2.511588179841692E1   8.683756699568595E1  -2.517363585183837E1   8.800074322180981E1  -8.037076827334878E-3  -2.764933852116950  
 1.100000000000000E8     5.476786007868571E-2  -3.898497139504977  -2.436006415287593E1   8.699305819407006E1  -2.441371013675750E1   8.720553859015335E1  -5.511349502252875E-2  -3.152765480780905  
 1.200000000000000E8    -4.101222534170692E-2  -4.354319995783023  -2.360284664181975E1   8.641061742165852E1  -2.356630849063310E1   8.707323962068517E1   3.261844816832663E-2  -3.567997160859679  
 1.300000000000000E8     7.150542045446340E-2  -4.329274857371332  -2.283760047975857E1   8.622738797462070E1  -2.294790920836784E1   8.652536212121368E1  -6.061392394279388E-2  -4.158784712425796  
 1.400000000000000E8    -3.962189761512228E-2  -4.852171916944356  -2.220633182873758E1   8.547136333593780E1  -2.223965387663576E1   8.579460594989762E1   5.166208674163519E-2  -4.579352900202267  
 1.500000000000000E8    -9.247967152605712E-3  -5.125181699601940  -2.161412941168979E1   8.559416622653720E1  -2.163504940147518E1   8.546450611822593E1   4.223416523874564E-2  -4.854164275763020  
 1.600000000000000E8    -7.868250545867811E-2  -4.931906296218151  -2.118972523963871E1   8.535983962528002E1  -2.114042764699189E1   8.524599916877412E1  -6.338769657045970E-3  -5.416797663084235  
 1.700000000000000E8    -2.530705175255245E-2  -5.754704872536972  -2.060835606127669E1   8.521338290181515E1  -2.058595974339687E1   8.479778816921106E1  -2.287613393314530E-2  -5.613508580542611  
 1.800000000000000E8    -6.389865604221782E-3  -6.291783695149087  -2.009090475457825E1   8.480303773253061E1  -2.009416731102320E1   8.495609631814536E1  -3.804546001293822E-2  -5.228816106067518  
 1.900000000000000E8    -3.104264739539108E-2  -6.420711198373474  -1.965281554566856E1   8.434941864624454E1  -1.963844497979531E1   8.442687481488406E1  -4.289515223597849E-2  -6.161079615771712  
 2.000000000000000E8     3.786968753152820E-2  -6.791320626998012  -1.917388856635947E1   8.424394821167931E1  -1.920009984211333E1   8.428749718546428E1  -2.625758201608328E-2  -6.193223259192918  
 2.100000000000000E8    -2.661560865656414E-2  -7.136854643126347  -1.877539618859996E1   8.416481529795144E1  -1.879462677527390E1   8.400039890645518E1  -4.367367201700024E-2  -6.537985002119448  
 2.200000000000000E8     9.007801649187989E-3  -7.330256588035617  -1.831514366067848E1   8.375197260115347E1  -1.838048582371088E1   8.393401276030723E1  -1.418892734352120E-2  -6.792866760093448  
 2.300000000000000E8     1.566000300208656E-2  -8.160287193079961  -1.795964436477282E1   8.334691419257264E1  -1.796600927277014E1   8.348951711012468E1  -4.493995835901059E-2  -6.855507103726114  
 2.400000000000000E8    -3.183766745634577E-2  -8.119163934498769  -1.763353703105765E1   8.310006737936008E1  -1.761543782603350E1   8.329322670591689E1  -3.969620044836793E-2  -7.317803808690179  
 2.500000000000000E8    -7.310533328593434E-2  -8.306458223354587  -1.726724824691133E1   8.298187025907771E1  -1.726587788801992E1   8.290014792098431E1  -2.645792466091076E-3  -7.674936726319336  
 2.600000000000000E8    -3.421213482642952E-2  -8.596709165238410  -1.695606605961648E1   8.263297377716962E1  -1.697176115409111E1   8.255135155836014E1  -8.526730491510375E-2  -8.140497138850032  
 2.700000000000000E8    -2.035224819032773E-2  -9.034545525446147  -1.659702189829475E1   8.233056482586507E1  -1.660900667741052E1   8.233246284947310E1  -2.759563381625009E-2  -8.435731211955428  
 2.800000000000000E8    -6.341709874024541E-2  -9.463376680183295  -1.629385488092465E1   8.190815304944053E1  -1.627735378168030E1   8.188098827280101E1  -1.287353074265502E-2  -8.746903672931342  
 2.900000000000000E8    -6.593154959192343E-2  -1.007232802638723E1  -1.600896803808934E1   8.136120675362545E1  -1.600933793711681E1   8.152430883448123E1  -4.517333343909163E-2  -9.084839024668506  
 3.000000000000000E8    -4.846525445187811E-2  -9.992607161478340  -1.572218916871087E1   8.142332830215142E1  -1.577629130838734E1   8.150208998258216E1  -9.667915401816105E-2  -9.289297268039112  
 3.100000000000000E8    -7.576076986282861E-2  -1.030322646863422E1  -1.546632964587519E1   8.123860907142870E1  -1.550757104545946E1   8.120484211230212E1  -1.354775667998901E-1  -9.538850198106017  
 3.200000000000000E8    -1.204155464788779E-1  -1.072289054803664E1  -1.520000675299616E1   8.081892506617581E1  -1.517629776050603E1   8.076246692754702E1  -4.021274076764655E-2  -1.003875719919155E1  
 3.300000000000000E8    -6.423449254459940E-2  -1.130708883905624E1  -1.490518769511814E1   8.056308296559814E1  -1.492691161073542E1   8.058128415807886E1  -7.824447826651622E-2  -1.001334302628421E1  
 3.400000000000000E8    -5.237926088472800E-2  -1.138482605839668E1  -1.465782162154021E1   8.042609511126729E1  -1.469541571285051E1   8.031511509113756E1  -9.932260708030850E-2  -1.026035967007203E1  
 3.500000000000000E8    -4.837868270021489E-2  -1.166300301240885E1  -1.441033971719672E1   8.014424712144573E1  -1.442055404159344E1   8.020103907583541E1  -8.628664574426004E-2  -1.074717531184022E1  
 3.600000000000000E8    -8.548883015369758E-2  -1.232480301178687E1  -1.420849428173028E1   7.958493057682276E1  -1.418560779561962E1   7.991236607122221E1  -1.031008313255647E-1  -1.083235511001630E1  
 3.700000000000000E8    -7.338706873964493E-2  -1.226295831573805E1  -1.396528283355377E1   7.947088446746731E1  -1.396480435995805E1   7.962160424103946E1  -1.363129579109498E-1  -1.143239571604678E1  
 3.800000000000000E8    -2.245399003270449E-1  -1.309783016763496E1  -1.383474164970776E1   7.703573013119623E1  -1.381864370446037E1   7.699998779268512E1  -1.371438042662389E-1  -1.111215886020142E1  
 3.900000000000000E8    -2.318554607326865E-1  -1.354680780000988E1  -1.361320707051767E1   7.688771596321392E1  -1.362770012098667E1   7.681003232544789E1  -1.229572224580433E-1  -1.110158161532180E1  
 4.000000000000000E8    -2.745270551438152E-1  -1.390729170696547E1  -1.342676479235241E1   7.652240038757458E1  -1.341809459502985E1   7.654146581733441E1  -1.477486238009116E-1  -1.126854869428831E1  
 4.100000000000000E8    -1.844715487493493E-1  -1.397461127132540E1  -1.323913120521070E1   7.632833787949622E1  -1.324354972992059E1   7.621749252730194E1  -2.572203250419716E-1  -1.187866418371324E1  
 4.200000000000000E8    -2.541005578842846E-1  -1.485520312286754E1  -1.301669483001043E1   7.569590753924049E1  -1.302354154212940E1   7.581000382228687E1  -2.042110233165082E-1  -1.183123421726712E1  
 4.300000000000000E8    -2.186848317565148E-1  -1.502169177688323E1  -1.282031258254312E1   7.589158903917534E1  -1.284296270448065E1   7.585105768319336E1  -2.465010067374819E-1  -1.218370337786369E1  
 4.400000000000000E8    -2.501145259131632E-1  -1.522554475138851E1  -1.264298429323507E1   7.538711559608683E1  -1.263407800091428E1   7.535649247338672E1  -1.937501458981512E-1  -1.269254146581974E1  
 4.500000000000000E8    -2.791735274897051E-1  -1.545547549884972E1  -1.247049964124684E1   7.536526620553670E1  -1.248961015203191E1   7.536039365260425E1  -2.430699509624337E-1  -1.266325728395764E1  
 4.600000000000000E8    -3.032687630593627E-1  -1.572093053435942E1  -1.229601426953394E1   7.488513099856036E1  -1.230342310257877E1   7.496700347136340E1  -2.134281052549990E-1  -1.304870430940803E1  
 4.700000000000000E8    -3.229240557055307E-1  -1.641108661936320E1  -1.213730985921665E1   7.442164608794150E1  -1.212528264804412E1   7.456856149496292E1  -2.211498183588684E-1  -1.299996067958973E1  
 4.800000000000000E8    -2.798346848618337E-1  -1.660103679331136E1  -1.194722515578559E1   7.441144080245054E1  -1.195307917839228E1   7.445418440924927E1  -2.845685993248394E-1  -1.340491690084826E1  
 4.900000000000000E8    -3.243559391111948E-1  -1.695825767095020E1  -1.175894625978847E1   7.405089772957111E1  -1.177285107468365E1   7.406424964032367E1  -2.411074295005351E-1  -1.387646084547376E1  
 5.000000000000000E8    -3.537797670244220E-1  -1.746079951620383E1  -1.163341637122161E1   7.368292144698404E1  -1.164233840499335E1   7.372462131625741E1  -2.301099506386232E-1  -1.371539473720122E1  
 5.100000000000000E8    -3.279147051063252E-1  -1.731064117599347E1  -1.150215000862076E1   7.342032697523948E1  -1.150812359599229E1   7.345862314811524E1  -2.682905571110082E-1  -1.409570291145423E1  
 5.200000000000000E8    -3.420796345108424E-1  -1.742272790328408E1  -1.134629739048949E1   7.322194600362607E1  -1.133511906418662E1   7.319269026879607E1  -2.891521099037803E-1  -1.457755083090954E1  
 5.300000000000000E8    -3.301987379937048E-1  -1.813761124141111E1  -1.117135900135891E1   7.280853396780174E1  -1.117916330204115E1   7.280535982089184E1  -3.330538442266245E-1  -1.467178496551222E1  
 5.400000000000000E8    -3.308236167213207E-1  -1.833844352985051E1  -1.102926430291029E1   7.261541120148659E1  -1.102984343176959E1   7.261495727655264E1  -3.415289496793431E-1  -1.489349355516806E1  
 5.500000000000000E8    -3.592813112562972E-1  -1.867599506078008E1  -1.089133047383857E1   7.240800277886733E1  -1.089637875288453E1   7.245726866457213E1  -3.433382188610373E-1  -1.514783089214038E1  
 5.600000000000000E8    -3.953279760813750E-1  -1.886348575267694E1  -1.073626631258173E1   7.196728816114015E1  -1.074027892756266E1   7.206715253456936E1  -3.488296299252039E-1  -1.560264480149991E1  
 5.700000000000000E8    -3.623287548201168E-1  -1.920596253646012E1  -1.060419757517553E1   7.169505130678688E1  -1.061242388404258E1   7.168121195571872E1  -3.806768305776963E-1  -1.587073385465823E1  
 5.800000000000000E8    -3.989642756828415E-1  -1.949340264702066E1  -1.045204294807446E1   7.144841815110326E1  -1.046170971416290E1   7.149167023315444E1  -3.616867117513923E-1  -1.602498487906094E1  
 5.900000000000000E8    -4.191775605752852E-1  -1.978809935428411E1  -1.033991344425044E1   7.119407567753794E1  -1.033784457565564E1   7.124333642092560E1  -3.862897911433088E-1  -1.633726045274991E1  
 6.000000000000000E8    -4.708573694358928E-1  -2.030760009927790E1  -1.023532262960611E1   7.086336408932807E1  -1.023422763247254E1   7.102767607646312E1  -3.631255857537964E-1  -1.646546788253111E1  
 6.100000000000000E8    -4.317725441837425E-1  -2.049013874815482E1  -1.009533649092024E1   7.073659987395941E1  -1.009010837125115E1   7.066832923170821E1  -4.110825956002780E-1  -1.682249219109624E1  
 6.200000000000000E8    -4.828706316791290E-1  -2.091549699692566E1  -9.973031337931532   7.049168206271190E1  -9.976006625218931   7.046628616895573E1  -3.884065585953460E-1  -1.690224334050875E1  
 6.300000000000000E8    -4.982198630486054E-1  -2.109851561602237E1  -9.866160208084734   7.016141188470911E1  -9.868981696302054   7.009784726187250E1  -4.166937153372763E-1  -1.716144607272853E1  
 6.400000000000000E8    -5.062714540305265E-1  -2.144862512153259E1  -9.748076842198824   6.993879350177302E1  -9.742181681992340   6.994787055825995E1  -4.307262652208678E-1  -1.729102759399001E1  
 6.500000000000000E8    -5.151301251977917E-1  -2.176630417873309E1  -9.615174895322411   6.968682983881965E1  -9.621516103714995   6.972010952712789E1  -4.466751192073089E-1  -1.733067052389302E1  
 6.600000000000000E8    -5.229674053762420E-1  -2.190337343774865E1  -9.513362661235219   6.941280053955673E1  -9.512577424780826   6.950084784244784E1  -4.650116764217203E-1  -1.768637321348376E1  
 6.700000000000000E8    -5.411998386709278E-1  -2.210352585407056E1  -9.380465616519587   6.916235762347642E1  -9.373611940412838   6.909484177077630E1  -5.074383443192754E-1  -1.809432376754041E1  
 6.800000000000000E8    -5.342802421257114E-1  -2.251990302858808E1  -9.265394899044631   6.890437166773910E1  -9.270851489017806   6.889592929824140E1  -5.235575872374106E-1  -1.812905960549645E1  
 6.900000000000000E8    -5.217308214949874E-1  -2.286590399007863E1  -9.153079478975021   6.861812666337355E1  -9.152398846682210   6.861215517507698E1  -5.593153010449612E-1  -1.838506188796142E1  
 7.000000000000000E8    -5.708245791837466E-1  -2.313497632084404E1  -9.049265232912029   6.834618230683670E1  -9.062445678216735   6.841615639453325E1  -5.417958431465341E-1  -1.870434218076539E1  
 7.100000000000000E8    -6.156234102654546E-1  -2.354558188292447E1  -8.952843471921437   6.793842541647882E1  -8.954705509506788   6.794326949218076E1  -5.522255838901887E-1  -1.917290581337652E1  
 7.200000000000000E8    -6.142258214993321E-1  -2.391322613707827E1  -8.844478452027458   6.772427148581798E1  -8.856925826123288   6.760333060171354E1  -5.802882780396172E-1  -1.927435040828172E1  
 7.300000000000000E8    -6.486237495946444E-1  -2.415335220889165E1  -8.756337993641090   6.741532769874394E1  -8.774710579891984   6.744824394358159E1  -5.836567819476440E-1  -1.953045434963073E1  
 7.400000000000000E8    -6.440967521537824E-1  -2.440284698712187E1  -8.664432362985478   6.721205066486994E1  -8.667995920229192   6.721953408884495E1  -6.064999907171067E-1  -1.975554918630958E1  
 7.500000000000000E8    -6.523045049945010E-1  -2.480407411397340E1  -8.571464133163168   6.695808707364606E1  -8.579723007652996   6.690631311406304E1  -6.304251317948775E-1  -1.991374820622018E1  
 7.600000000000000E8    -6.821322153098283E-1  -2.486583761415253E1  -8.493132414951344   6.671370124905809E1  -8.483090277737110   6.670151369381533E1  -6.497396903247150E-1  -2.030103861335424E1  
 7.700000000000000E8    -6.830945613036914E-1  -2.521537880821914E1  -8.383722273242723   6.651171411902931E1  -8.396922070114039   6.645863608404251E1  -6.569800296647610E-1  -2.045126161776648E1  
 7.800000000000000E8    -7.127963060298085E-1  -2.554627283120556E1  -8.282278939108283   6.626265281988043E1  -8.282485003463057   6.625024861805233E1  -6.710589471592939E-1  -2.055362016592238E1  
 7.900000000000000E8    -7.335566130695732E-1  -2.570072098242443E1  -8.207382988246504   6.603724965668491E1  -8.207325709980335   6.603504766362119E1  -6.876081964692713E-1  -2.070996874086698E1  
 8.000000000000000E8    -7.596164401408106E-1  -2.597895541155302E1  -8.100499115135220   6.573416456366331E1  -8.100057418448307   6.582244838927687E1  -6.917129603316771E-1  -2.107654239143621E1  
 8.100000000000000E8    -7.510673639223253E-1  -2.634987619409831E1  -7.995206669292020   6.548012767833534E1  -8.014519205019903   6.545225940280207E1  -7.319438825229864E-1  -2.120261812900558E1  
 8.200000000000000E8    -7.883805554736303E-1  -2.661319251260746E1  -7.919711789559455   6.521852501866766E1  -7.927243760662220   6.524775546582151E1  -7.489173063043685E-1  -2.150352374047934E1  
 8.300000000000000E8    -8.074703930737048E-1  -2.685836745340273E1  -7.832405659513840   6.499878476221016E1  -7.837629750190616   6.501785693768569E1  -7.555615955439508E-1  -2.174963155812837E1  
 8.400000000000000E8    -8.140656978202395E-1  -2.721915573227133E1  -7.754563932503837   6.473242876084623E1  -7.767235374767505   6.477991808288732E1  -7.820680522589111E-1  -2.190752948533137E1  
 8.500000000000000E8    -8.265042422840080E-1  -2.751436296563676E1  -7.671992609209220   6.447983740255263E1  -7.673998775143486   6.452442497068036E1  -8.002423868958528E-1  -2.222216105114951E1  
 8.600000000000000E8    -8.292270692200087E-1  -2.769448255245694E1  -7.588903544994101   6.423742944742195E1  -7.584397660418288   6.414280346529513E1  -8.262225533525555E-1  -2.258511219357262E1  
 8.700000000000000E8    -8.597919132038248E-1  -2.792217407746188E1  -7.512834919227393   6.395957439776254E1  -7.523076739966682   6.389024138119019E1  -8.264942503992452E-1  -2.276409120814549E1  
 8.800000000000000E8    -8.541016590238498E-1  -2.836850023700576E1  -7.441142999529342   6.368479187138362E1  -7.465601469585614   6.374059331293331E1  -8.792479933741302E-1  -2.280289035615110E1  
 8.900000000000000E8    -8.954025988725221E-1  -2.838257881419154E1  -7.369100446710347   6.351338905478159E1  -7.369100400938113   6.352454308043200E1  -8.628151644711882E-1  -2.324142815617470E1  
 9.000000000000000E8    -9.173022831890882E-1  -2.867638189645543E1  -7.292970532447424   6.322165327263572E1  -7.291106799480857   6.329440005883881E1  -8.812014618074918E-1  -2.337009448594944E1  
 9.100000000000000E8    -9.294212392298052E-1  -2.887840325674032E1  -7.215940806888020   6.313929656947794E1  -7.224245787845539   6.308979827570229E1  -9.131821540657631E-1  -2.356504469898054E1  
 9.200000000000000E8    -9.364373945794101E-1  -2.914371081512187E1  -7.142813705338031   6.280850851167097E1  -7.151219496404946   6.284838465414944E1  -9.391657735641811E-1  -2.378428923757607E1  
 9.300000000000000E8    -9.582648765762327E-1  -2.942497713575799E1  -7.067769695930640   6.267433260398484E1  -7.069240624365587   6.259148282864091E1  -9.550455194747977E-1  -2.401386121208543E1  
 9.400000000000000E8    -9.787719292163488E-1  -2.973106721460969E1  -6.989912861991764   6.238651596772166E1  -6.994500998869083   6.241336207933645E1  -9.780502718319685E-1  -2.421240153374068E1  
 9.500000000000000E8    -9.873169344233270E-1  -2.991264509816186E1  -6.911684945557188   6.216514480656624E1  -6.921499644924988   6.216841485980240E1  -1.005781281820367  -2.448326093044795E1  
