! Skyworks SMV1408-219 De-embedded S-Parameter Data																		
! Created  11-5-2013																		
! 2 Port Network Data																		
! Mounted on Board # SK41159-3 Rev 1 in Series, Cathode is connected to RF1 as Input( Pin 1) and Anode is connected RF2 as Output(Pin 2)																	
! Temperature = +25 °C																		
! RF traces and connectors are de-embedded using TRL calibration and standards																		
! Reference planes are package pins																		
! Pin 1 Input port (S-Port1), Pin 2 Output port (S-port2)																		
! Pin = 0 dBm, Bias: Vr = 3V																		
! Dev # 1

#  HZ   S   DB   R     50.00 
! Rohde & Schwarz ZVA24 4Ports - Version 2.90 - 1145.1110k26 SN: 100216
! Date: 2013-11-05 15:25:33
! Measurements: S11 S21 S12 S22 
! 
 1.000000000000000E7     8.753773176280928E-1   3.460062960462400  -3.782209554600173E1   9.310101765239452E1  -3.749672445651328E1   8.947119790516237E1  -1.121133033622801  -4.888209004322678  
 2.000000000000000E7    -4.132978471295166E-1  -5.563816295450706E-1  -3.205829217314632E1   9.170850989599781E1  -3.178547667173691E1   8.785921663830736E1   4.445098674776445E-2  -2.208757655651053E-1  
 3.000000000000000E7     1.587108973978482E-1  -3.266415146159454E-1  -2.833362022352642E1   8.827652769244826E1  -2.823550037247860E1   8.875791616916698E1  -1.391303724258445E-1  -2.432775398947076  
 4.000000000000000E7    -6.013708563280992E-2  -2.835674830976389  -2.577610997796329E1   8.875071734901825E1  -2.572462988264503E1   8.727341159863835E1  -6.518347040754181E-2  -2.060259889870562  
 5.000000000000000E7    -4.645689475875295E-2  -4.425344854172718  -2.376278581271203E1   8.698882087051635E1  -2.378281870380977E1   8.564138998546734E1   9.220545876042482E-2  -3.274151293544946  
 6.000000000000000E7     1.115062316152816E-1  -4.691512037806971  -2.220467429397738E1   8.671076970108229E1  -2.232640969860698E1   8.469417421437011E1  -1.483915035917755E-1  -4.028679912071823  
 7.000000000000000E7    -9.750993726869708E-3  -5.801284238702322  -2.092144584272376E1   8.490053230595360E1  -2.084472676637542E1   8.497720158161469E1   1.664602789712328E-1  -4.349023692130734  
 8.000000000000000E7    -8.590566957283207E-3  -6.042645677278971  -1.984165876154704E1   8.453467418375385E1  -1.973868365881749E1   8.470979772681868E1  -5.166852524254886E-3  -5.225225317550137  
 9.000000000000000E7    -2.200999644731913E-2  -5.835645977945210  -1.884454991353400E1   8.346274800641372E1  -1.877697293829393E1   8.367063739334560E1  -8.211780685829188E-2  -7.484296592617580  
 1.000000000000000E8    -2.423515603174796E-2  -7.321371013574720  -1.780770888755929E1   8.272289275342735E1  -1.785268309952753E1   8.357749869884783E1  -3.250178624433494E-2  -7.282274713488562  
 1.100000000000000E8    -5.564123002271643E-2  -8.227033604495059  -1.710127621506550E1   8.227148900029680E1  -1.706539060931858E1   8.275019459518039E1  -7.584220921417809E-2  -7.548833893953168  
 1.200000000000000E8    -1.427922095968839E-1  -9.427109288048467  -1.633856960360865E1   8.101106690086687E1  -1.630405058748507E1   8.179656931142186E1  -4.044805396257104E-2  -8.718706175032068  
 1.300000000000000E8    -7.332492671664807E-2  -9.705697370427538  -1.565134604658293E1   8.090448279801599E1  -1.570769226149639E1   8.078464713671930E1  -1.730460652148808E-1  -9.682760951835544  
 1.400000000000000E8    -1.545956086941919E-1  -1.055536391354928E1  -1.497712409892659E1   7.971961961554131E1  -1.499988557336856E1   7.998830534342613E1  -4.041729199725585E-2  -1.034443000330234E1  
 1.500000000000000E8    -1.134272832031949E-1  -1.164839647136541E1  -1.441539220742872E1   7.921545232235137E1  -1.440408669693001E1   7.915651789151073E1  -7.345321315162207E-2  -1.100048350079108E1  
 1.600000000000000E8    -2.144098391924816E-1  -1.170182526233856E1  -1.397972296460814E1   7.859939706064081E1  -1.394092543170723E1   7.849989411931890E1  -1.456069869677592E-1  -1.205242883357082E1  
 1.700000000000000E8    -1.455499104602817E-1  -1.254678562994010E1  -1.339837585435991E1   7.813548219020711E1  -1.342361827449420E1   7.788245354854234E1  -1.888440317691782E-1  -1.249616546308495E1  
 1.800000000000000E8    -2.028756272322754E-1  -1.386710529254798E1  -1.294714218534443E1   7.713550556215920E1  -1.293928488516127E1   7.720811002588140E1  -1.881515240824229E-1  -1.288457782419119E1  
 1.900000000000000E8    -1.854810513873356E-1  -1.407675590457784E1  -1.247318539239157E1   7.665247092603359E1  -1.252594607307788E1   7.687430674372963E1  -2.656435024556137E-1  -1.367965049328314E1  
 2.000000000000000E8    -1.548285037504737E-1  -1.513196888633240E1  -1.202474131818390E1   7.572912201095775E1  -1.206146711447669E1   7.617063129250812E1  -2.406855209082440E-1  -1.420250549925146E1  
 2.100000000000000E8    -2.513195640829711E-1  -1.553256426701176E1  -1.166311308126948E1   7.552238346327926E1  -1.166045903307859E1   7.559206089316594E1  -2.602490561969584E-1  -1.491005806606209E1  
 2.200000000000000E8    -2.585409288348041E-1  -1.620724748467066E1  -1.125408845499989E1   7.495954812551146E1  -1.127529572943281E1   7.494850386773406E1  -2.509076646149841E-1  -1.567967612258932E1  
 2.300000000000000E8    -2.696759028207545E-1  -1.738579750736816E1  -1.090419847517523E1   7.402419851167957E1  -1.090137210016417E1   7.416286326335789E1  -3.311846650716692E-1  -1.604478662006862E1  
 2.400000000000000E8    -3.205706780920998E-1  -1.781237407559507E1  -1.059418062434201E1   7.347099193318466E1  -1.056664917290975E1   7.362673002333462E1  -3.383300476674432E-1  -1.687837833200362E1  
 2.500000000000000E8    -3.987025812410741E-1  -1.835819461020478E1  -1.025039355351623E1   7.281941182986085E1  -1.025170244421079E1   7.280274884729026E1  -3.296099752121406E-1  -1.768667232039115E1  
 2.600000000000000E8    -3.658762285514934E-1  -1.891347593795100E1  -9.936254424979333   7.222840585857661E1  -9.971617684007631   7.229229175850250E1  -4.261735348765827E-1  -1.834438064372925E1  
 2.700000000000000E8    -3.871659225868321E-1  -1.971201815729524E1  -9.621645939810117   7.160813620101065E1  -9.685558232605839   7.161553085900239E1  -4.456080808864023E-1  -1.902782548760609E1  
 2.800000000000000E8    -4.748882476409724E-1  -2.050214908331271E1  -9.373451277282664   7.081685635760589E1  -9.335208009674668   7.072840417468660E1  -4.140733051761008E-1  -1.987729283692242E1  
 2.900000000000000E8    -5.024864272104216E-1  -2.140514906964293E1  -9.103108267694177   6.996478115140191E1  -9.112859846028028   7.009245551065843E1  -4.938096265649292E-1  -2.045670936051637E1  
 3.000000000000000E8    -5.212538452359433E-1  -2.175108505200336E1  -8.843839116129875   6.958398162000287E1  -8.864690814579504   6.978176597865435E1  -5.308788380963654E-1  -2.091433815766703E1  
 3.100000000000000E8    -5.594913289342649E-1  -2.240113957899572E1  -8.615895201480235   6.904871568618034E1  -8.631327329437099   6.900296769256204E1  -5.865977987423984E-1  -2.163732423812452E1  
 3.200000000000000E8    -6.232054890682895E-1  -2.315103518180733E1  -8.361521057614837   6.834651614013302E1  -8.356437366998442   6.835505085002458E1  -5.590141067826757E-1  -2.227647297161451E1  
 3.300000000000000E8    -6.032801162330677E-1  -2.408804354056323E1  -8.106793412605031   6.773901435116710E1  -8.122943539457776   6.784313256892277E1  -6.203124616428403E-1  -2.260780035416643E1  
 3.400000000000000E8    -6.231156742917211E-1  -2.451020027069582E1  -7.885046295844024   6.731227130009455E1  -7.927589549195070   6.718172848843672E1  -6.720476530875972E-1  -2.323865260762503E1  
 3.500000000000000E8    -6.748756071944514E-1  -2.504355106487252E1  -7.678127842983693   6.661784055037724E1  -7.683075153620121   6.677974478269830E1  -7.000432416489946E-1  -2.405622565717928E1  
 3.600000000000000E8    -7.261485350440474E-1  -2.609591138710466E1  -7.496836454133512   6.572824774103069E1  -7.458189562147553   6.618737512289394E1  -7.307244078124358E-1  -2.442242926137460E1  
 3.700000000000000E8    -7.249058628441323E-1  -2.622194182514480E1  -7.259441464840224   6.543307865743789E1  -7.282814492652025   6.549188395509047E1  -8.034136706663749E-1  -2.538024448850500E1  
 3.800000000000000E8    -9.823982887910566E-1  -2.708645133002900E1  -7.232531293996939   6.291977344254175E1  -7.255056244502256   6.292975978215790E1  -9.179980124733502E-1  -2.494275896837531E1  
 3.900000000000000E8    -1.034751471289241  -2.789054818461226E1  -7.058596169352003   6.247179699676264E1  -7.084061260870023   6.243444323236518E1  -9.306295014716413E-1  -2.528149566743484E1  
 4.000000000000000E8    -1.105757953268838  -2.847078069623174E1  -6.904417291289813   6.193140059357728E1  -6.903813018586480   6.187183770825860E1  -9.765037223843487E-1  -2.572838396751596E1  
 4.100000000000000E8    -1.036443166434429  -2.877847324771612E1  -6.729684536135923   6.148517007242243E1  -6.756891922417102   6.136932537638916E1  -1.126794672686698  -2.662642498103521E1  
 4.200000000000000E8    -1.174079204606955  -2.992640107079276E1  -6.577492824309834   6.055282483876267E1  -6.587030789999582   6.064705021502593E1  -1.125447105887019  -2.677697015257420E1  
 4.300000000000000E8    -1.150656094585285  -3.033193033628663E1  -6.401406432433039   6.046952751640307E1  -6.415966165556728   6.041535561444241E1  -1.179049730529843  -2.744521611271665E1  
 4.400000000000000E8    -1.225271298340726  -3.079671193838092E1  -6.257857269075031   5.975013756293196E1  -6.253201648055258   5.975098141576589E1  -1.165669675202837  -2.810758448784384E1  
 4.500000000000000E8    -1.281924291270963  -3.141594390447798E1  -6.114152148363621   5.935540108738986E1  -6.137451451850517   5.944096199561630E1  -1.251740505141826  -2.835217488361404E1  
 4.600000000000000E8    -1.337793276538688  -3.177758402947147E1  -5.973385794333013   5.877443509267481E1  -5.969819513427146   5.876603434765863E1  -1.233734662455482  -2.907297383107996E1  
 4.700000000000000E8    -1.392968053537437  -3.273149856387676E1  -5.846496638207388   5.802753444584884E1  -5.855752899970803   5.823400568115089E1  -1.304002529389961  -2.914224024330522E1  
 4.800000000000000E8    -1.393818996142543  -3.324919440418859E1  -5.698307500098191   5.769870803274669E1  -5.703731575814246   5.770186590375403E1  -1.384736406928650  -2.993471147587631E1  
 4.900000000000000E8    -1.476757665310881  -3.382584244843377E1  -5.551662770693310   5.703641117561060E1  -5.565406664640883   5.718361130378779E1  -1.391839393476878  -3.049123285470164E1  
 5.000000000000000E8    -1.543179721942862  -3.444101172829692E1  -5.466503508562566   5.663746147938394E1  -5.472368269148418   5.667983617913752E1  -1.414268421726501  -3.052061268874686E1  
 5.100000000000000E8    -1.552681750972963  -3.455166996860648E1  -5.352847231599937   5.607522906953324E1  -5.362778148558870   5.612168767145459E1  -1.488037774236492  -3.117845828179700E1  
 5.200000000000000E8    -1.601718171580038  -3.491315175362173E1  -5.233335764540971   5.565070593006018E1  -5.230501869876509   5.563513693645309E1  -1.543660602164481  -3.187038752196009E1  
 5.300000000000000E8    -1.622950082760803  -3.581848944294265E1  -5.098707970511416   5.509881338513592E1  -5.109684623156572   5.508931998126653E1  -1.630270208894681  -3.218841484827883E1  
 5.400000000000000E8    -1.665377629343996  -3.619734005746690E1  -4.993404586117035   5.464664144803848E1  -5.004102231308075   5.462679850904080E1  -1.690089755810924  -3.260564943390056E1  
 5.500000000000000E8    -1.729256848468818  -3.675988978780608E1  -4.884686173462687   5.423671822467762E1  -4.891693556857772   5.426295374694315E1  -1.701752848538955  -3.311862269915263E1  
 5.600000000000000E8    -1.814829639479272  -3.714911412319597E1  -4.783187043293068   5.362281258298336E1  -4.791214820796018   5.367386031957301E1  -1.760406382997203  -3.374428684887334E1  
 5.700000000000000E8    -1.824453929117945  -3.774354769351926E1  -4.693557233187702   5.310693739144347E1  -4.697565287278250   5.320522823373572E1  -1.831118806469096  -3.405820516828733E1  
 5.800000000000000E8    -1.894902657677550  -3.823231096836950E1  -4.578168532398939   5.266089047285378E1  -4.586543459070648   5.271277908233144E1  -1.851615573980964  -3.452242450355153E1  
 5.900000000000000E8    -1.946058920775187  -3.873112208047913E1  -4.489939182297702   5.224224501570649E1  -4.503989185456437   5.222144305450167E1  -1.918102952677188  -3.506293953204921E1  
 6.000000000000000E8    -2.028703957705115  -3.937904939269466E1  -4.417684693155756   5.176891317752281E1  -4.426958138714692   5.185414346586690E1  -1.924345273954616  -3.536134213692618E1  
 6.100000000000000E8    -2.031360659374975  -3.977504953336803E1  -4.319532403895433   5.142765473241232E1  -4.314389903666999   5.138133436450918E1  -2.008685454425311  -3.580971458216308E1  
 6.200000000000000E8    -2.114378545097055  -4.034118005983250E1  -4.220685242576762   5.102992092652132E1  -4.245484083589726   5.104975936083883E1  -2.027326712613253  -3.599230095582912E1  
 6.300000000000000E8    -2.184779943482007  -4.067704776639343E1  -4.169737397759155   5.054813875273076E1  -4.167660442026632   5.053022780298417E1  -2.093976512407264  -3.636687229943132E1  
 6.400000000000000E8    -2.216257577616224  -4.120009026706559E1  -4.072256257152517   5.014243530710295E1  -4.074685026851109   5.012560650974491E1  -2.148220429299918  -3.675691569826636E1  
 6.500000000000000E8    -2.269493895111612  -4.165716754107867E1  -3.976500292425075   4.978776274582594E1  -3.984454366018579   4.974442428352051E1  -2.194465038202011  -3.695413388758600E1  
 6.600000000000000E8    -2.334082265802199  -4.200266207338562E1  -3.928400655147738   4.926259465303856E1  -3.917375125918059   4.933433292047823E1  -2.263484332282730  -3.747406509361245E1  
 6.700000000000000E8    -2.371628256701978  -4.233158251812103E1  -3.817324609163230   4.892085775951471E1  -3.821316845384134   4.878718010515867E1  -2.346419766044322  -3.800386398123919E1  
 6.800000000000000E8    -2.408983019762130  -4.296686760883045E1  -3.747128302972028   4.843397713373984E1  -3.757304866868301   4.841863636744569E1  -2.407230369214558  -3.819018520830223E1  
 6.900000000000000E8    -2.437918805744904  -4.345246148739810E1  -3.667777790718259   4.799881116689022E1  -3.674108493857376   4.799683946426443E1  -2.478847670576549  -3.861159728074805E1  
 7.000000000000000E8    -2.531936515912833  -4.388422852866276E1  -3.611111036374327   4.755148751758149E1  -3.612706830271925   4.765917128118289E1  -2.493727236491417  -3.909558976275189E1  
 7.100000000000000E8    -2.608903951398132  -4.434088946925123E1  -3.549767139626589   4.711732925224588E1  -3.550945976017948   4.715174947685798E1  -2.548384014744553  -3.962754904535005E1  
 7.200000000000000E8    -2.649030046627273  -4.486641913389597E1  -3.479102066142960   4.672197421117588E1  -3.485783609566308   4.668165903256261E1  -2.613201192776996  -3.981969159939671E1  
 7.300000000000000E8    -2.724011413010510  -4.523616049174976E1  -3.425422850309803   4.630315222129136E1  -3.435289992790010   4.640945615223961E1  -2.654195072440694  -4.018275926264050E1  
 7.400000000000000E8    -2.745796780107449  -4.560719644041541E1  -3.361804378352277   4.601281977812457E1  -3.363241611477636   4.604922024937128E1  -2.709707763597178  -4.055567274769988E1  
 7.500000000000000E8    -2.793998183403740  -4.610538745293219E1  -3.307806712756692   4.568680926871550E1  -3.311770210107257   4.567169184671437E1  -2.766323301685550  -4.077612933884453E1  
 7.600000000000000E8    -2.858004692881297  -4.624854723416008E1  -3.253886944232978   4.533990088931344E1  -3.253792683538664   4.528904877601262E1  -2.828122782808205  -4.126842838223999E1  
 7.700000000000000E8    -2.898528687527237  -4.680014933206271E1  -3.180386661635514   4.494697698304388E1  -3.196012557572127   4.498991882700095E1  -2.873304914630245  -4.148675654203525E1  
 7.800000000000000E8    -2.972458323230351  -4.725888565822804E1  -3.115157689700661   4.458929695289753E1  -3.127292645942040   4.456025364574081E1  -2.938247880521570  -4.178937753781992E1  
 7.900000000000000E8    -3.023510498351958  -4.751482850253595E1  -3.067920700892520   4.425467569487625E1  -3.078705645544515   4.431487570255587E1  -2.989943989694305  -4.198321164184074E1  
 8.000000000000000E8    -3.096054614759618  -4.789871623879279E1  -3.010829000939285   4.385818535005308E1  -3.014555196490780   4.390786133333106E1  -3.030263334460618  -4.248599130684426E1  
 8.100000000000000E8    -3.139312448354349  -4.842496703333966E1  -2.946811661922033   4.349383843489419E1  -2.970294500755799   4.349584701605050E1  -3.124486236001083  -4.267992910665351E1  
 8.200000000000000E8    -3.201774214750266  -4.880388774139722E1  -2.898533976019320   4.308995912614029E1  -2.910224055727315   4.321036577011027E1  -3.168486051907493  -4.305301340921641E1  
 8.300000000000000E8    -3.266383720685257  -4.915578650719296E1  -2.851935374611069   4.277186135014496E1  -2.860930879435371   4.278458304437079E1  -3.220222094929668  -4.350014159844029E1  
 8.400000000000000E8    -3.307983389772296  -4.960003419980417E1  -2.813469551679934   4.241224169064089E1  -2.815109151429174   4.249869633467188E1  -3.271037329098088  -4.369033435011334E1  
 8.500000000000000E8    -3.351540456111350  -4.993663977394134E1  -2.756036526049942   4.212625829602383E1  -2.759730208151413   4.213272905675563E1  -3.328977431865864  -4.410569658513960E1  
 8.600000000000000E8    -3.389244991021374  -5.018656509129819E1  -2.709725587641186   4.175103133122129E1  -2.710481750405958   4.168698676453369E1  -3.397066062853793  -4.454032154871256E1  
 8.700000000000000E8    -3.457955210002389  -5.048933447205015E1  -2.670920005926347   4.143280402566550E1  -2.675355722129869   4.142632254044281E1  -3.418207070448765  -4.474107435126621E1  
 8.800000000000000E8    -3.488334031069665  -5.096642022242162E1  -2.632386602822832   4.114248539791319E1  -2.643180375321319   4.123216368783539E1  -3.496511991069550  -4.483156386888096E1  
 8.900000000000000E8    -3.566498675096616  -5.114376585833118E1  -2.583581348666015   4.079628631476928E1  -2.589208188999801   4.081949190341485E1  -3.538682534938224  -4.540278573037966E1  
 9.000000000000000E8    -3.629966710387214  -5.145216109682131E1  -2.543599288527370   4.048739116852064E1  -2.542296717905836   4.055423302361920E1  -3.589219533386475  -4.561503194853103E1  
 9.100000000000000E8    -3.673458308386778  -5.185366465163422E1  -2.495484366861140   4.022656892016170E1  -2.499226904933966   4.026758835513614E1  -3.653703472820248  -4.582572463557108E1  
 9.200000000000000E8    -3.716827090837377  -5.220782221278229E1  -2.461901604244370   3.987536026569878E1  -2.466963001979068   3.992113422123112E1  -3.725067302498767  -4.613406376785793E1  
 9.300000000000000E8    -3.781969272982434  -5.254864324621603E1  -2.417441932397319   3.961614973855934E1  -2.419869487360381   3.960556109123171E1  -3.789737747789058  -4.639696432871295E1  
 9.400000000000000E8    -3.836669749170190  -5.299917758671442E1  -2.372340046913338   3.924177447242719E1  -2.375473814821717   3.933471256800564E1  -3.836697461285678  -4.670627205631996E1  
 9.500000000000000E8    -3.883741585438438  -5.323568495049631E1  -2.328357770002010   3.900251004150114E1  -2.338377209502519   3.903010624435819E1  -3.899975385640717  -4.699660218386152E1  
 9.600000000000000E8    -3.933908845420914  -5.357182715546042E1  -2.303872988195642   3.873256638818067E1  -2.296716071394660   3.867803230456502E1  -3.954112030124398  -4.733811182531505E1  
 9.700000000000000E8    -3.973710822256802  -5.398390068272790E1  -2.254588308277518   3.844083517994424E1  -2.266957439328313   3.837375409372400E1  -4.013950274540781  -4.763341969791876E1  
