! Skyworks SMV1408-219 De-embedded S-Parameter Data																		
! Created  11-5-2013																		
! 2 Port Network Data																		
! Mounted on Board # SK41159-3 Rev 1 in Series, Cathode is connected to RF1 as Input( Pin 1) and Anode is connected RF2 as Output(Pin 2)																	
! Temperature = +25 °C																		
! RF traces and connectors are de-embedded using TRL calibration and standards																		
! Reference planes are package pins																		
! Pin 1 Input port (S-Port1), Pin 2 Output port (S-port2)																		
! Pin = 0 dBm, Bias: Vr = 5V																		
! Dev # 1

#  HZ   S   DB   R     50.00 
! Rohde & Schwarz ZVA24 4Ports - Version 2.90 - 1145.1110k26 SN: 100216
! Date: 2013-11-05 15:25:47
! Measurements: S11 S21 S12 S22 
! 
 1.000000000000000E7     1.002984325292593   2.924270592686501  -3.763042224766090E1   9.273559771180973E1  -3.903768720605959E1   8.703478208956214E1  -8.281937918724901E-1  -4.894629763714867  
 2.000000000000000E7    -2.862567908557901E-1   2.257757245469896E-1  -3.352829184733689E1   9.112840595227421E1  -3.395310160328567E1   8.939346775281484E1  -3.407300165362560E-2  -8.069179581836563E-1  
 3.000000000000000E7     2.949692218397713E-1   3.761111330871670E-1  -2.949777462359823E1   8.972839652623757E1  -3.043711892266560E1   8.973070897107670E1  -1.750729684450037E-1  -1.355665502905226  
 4.000000000000000E7     6.903060891795651E-2  -3.213254974287536  -2.731567972508886E1   8.757117857575457E1  -2.734332379122967E1   8.840776377406216E1  -3.970860841994632E-2  -2.407983654976317  
 5.000000000000000E7    -1.508167636563842E-1  -3.960333076792940  -2.560817146915993E1   8.685061087834895E1  -2.536866493475434E1   8.638938257301057E1   1.948632548724054E-1  -3.486667289678983  
 6.000000000000000E7     9.358184258983242E-2  -3.888503916583238  -2.383136557896531E1   8.693536404178900E1  -2.376081561728537E1   8.610928379541004E1   2.934599392060244E-2  -3.385296052836554  
 7.000000000000000E7    -4.973580956204279E-2  -5.391549692322625  -2.248829236054204E1   8.586845702788477E1  -2.257734690434571E1   8.597157973446460E1   2.691192115081337E-3  -3.565565537916661  
 8.000000000000000E7    -1.695400846010316E-1  -5.005954440826084  -2.153307933068984E1   8.556047153254777E1  -2.131051350087661E1   8.562426532464522E1   5.907296230892180E-2  -4.682369229070775  
 9.000000000000000E7    -2.405886390813912E-2  -4.283638057283937  -2.038960838148649E1   8.504730405698841E1  -2.039042003809903E1   8.523173061844928E1  -9.060754812388258E-2  -6.401667240727422  
 1.000000000000000E8    -5.574057867993711E-2  -6.079239149110005  -1.945698982817104E1   8.374508117139833E1  -1.951003618368513E1   8.472082996473570E1  -6.968999539040061E-2  -6.050771485105859  
 1.100000000000000E8    -8.629917318456887E-3  -7.234860814733892  -1.864613728607073E1   8.323078666258401E1  -1.859307406437794E1   8.394906203631496E1  -7.683435948257159E-3  -6.293326368886613  
 1.200000000000000E8    -7.286793891045826E-2  -8.020884935120213  -1.787015759396554E1   8.244999173691396E1  -1.780755468599032E1   8.351675700739895E1   2.842521021689369E-2  -7.220167356978187  
 1.300000000000000E8    -1.309623878346109E-2  -8.075420990416964  -1.719998621113300E1   8.249838105797701E1  -1.726024290860548E1   8.260935024572218E1  -1.159583027354007E-1  -8.033896965795348  
 1.400000000000000E8    -1.243430160275031E-1  -8.781468573527349  -1.654893278097130E1   8.143947978641219E1  -1.655521209803349E1   8.183140210146611E1   5.568927953613602E-3  -8.532280713223955  
 1.500000000000000E8    -9.704345811037213E-2  -9.809333494822692  -1.598963286456944E1   8.101184504355636E1  -1.597324291922250E1   8.093470056911247E1  -3.998078380046838E-2  -9.357482256744801  
 1.600000000000000E8    -1.487507485216332E-1  -9.824708028346647  -1.550982699412862E1   8.030509161443436E1  -1.550360136592313E1   8.042918337538629E1  -1.233976199565627E-1  -1.014046490008463E1  
 1.700000000000000E8    -1.164454118105335E-1  -1.050594592275011E1  -1.497620489627480E1   8.016172096461243E1  -1.499495358043538E1   7.997936603502775E1  -1.386514522223362E-1  -1.044991887206809E1  
 1.800000000000000E8    -1.044067273931807E-1  -1.147852204659509E1  -1.447023942488438E1   7.959644393196112E1  -1.452314981209656E1   7.948882289502575E1  -1.986306196761319E-1  -1.052674258727745E1  
 1.900000000000000E8    -1.100934246347206E-1  -1.191424964609315E1  -1.400657915431677E1   7.878730124723219E1  -1.401277418348648E1   7.889218779094774E1  -1.486770877194799E-1  -1.160006944344329E1  
 2.000000000000000E8    -1.054695729648701E-1  -1.280579635661183E1  -1.358129281281970E1   7.811691080619654E1  -1.359974664036737E1   7.841790496461987E1  -1.852940616721239E-1  -1.203458314203000E1  
 2.100000000000000E8    -1.545110655016784E-1  -1.297269195905538E1  -1.317228401967437E1   7.822877280720813E1  -1.322071173300840E1   7.792019723813137E1  -2.102650867519294E-1  -1.268789903080036E1  
 2.200000000000000E8    -1.739353660541907E-1  -1.349760472433655E1  -1.276369121186170E1   7.760109620203453E1  -1.280451451582728E1   7.759158389988370E1  -1.713993719325068E-1  -1.308261261097616E1  
 2.300000000000000E8    -1.480302334751686E-1  -1.474241709772045E1  -1.237269614161307E1   7.670997347730783E1  -1.240082868008566E1   7.684399219912304E1  -2.237717038816174E-1  -1.341485548390477E1  
 2.400000000000000E8    -2.028544270803750E-1  -1.504048620404459E1  -1.208176786770847E1   7.627417608566324E1  -1.205734618391891E1   7.634771944907186E1  -2.188195651629801E-1  -1.416344666951208E1  
 2.500000000000000E8    -2.756307391102019E-1  -1.543210090928599E1  -1.172041406913590E1   7.584761265779873E1  -1.173035293777872E1   7.557337946192223E1  -1.952274993732954E-1  -1.489288032724136E1  
 2.600000000000000E8    -2.414625474378326E-1  -1.606905636701450E1  -1.141858189178736E1   7.511136594431544E1  -1.143745448106931E1   7.535726686317715E1  -2.880206960082651E-1  -1.539249665765147E1  
 2.700000000000000E8    -2.792146341908540E-1  -1.670922465622449E1  -1.112085259124685E1   7.453116108781609E1  -1.112927208231674E1   7.446725135052473E1  -3.002149008286038E-1  -1.616236627668647E1  
 2.800000000000000E8    -3.026152068357562E-1  -1.731703152913877E1  -1.080747206687304E1   7.407832277915384E1  -1.079708248732142E1   7.398590868360972E1  -2.649195995288659E-1  -1.666971304605434E1  
 2.900000000000000E8    -3.317195514615385E-1  -1.812405247802924E1  -1.053390584692530E1   7.330901194074937E1  -1.052446057948328E1   7.349652108376914E1  -2.994477986669550E-1  -1.709790866267817E1  
 3.000000000000000E8    -3.431201051540226E-1  -1.833164298138266E1  -1.026663719191185E1   7.308470239034755E1  -1.029971014967496E1   7.300737488095797E1  -3.658729949486446E-1  -1.769611847036106E1  
 3.100000000000000E8    -3.897188400445302E-1  -1.908150327712605E1  -1.003955912486963E1   7.242575634873737E1  -1.006207659091751E1   7.240884943389169E1  -4.192041987063528E-1  -1.826631389434284E1  
 3.200000000000000E8    -4.399555050878924E-1  -1.962942028614219E1  -9.780854365421622   7.186437084648331E1  -9.785730633506779   7.186750268116593E1  -3.759918663768864E-1  -1.885814415382249E1  
 3.300000000000000E8    -4.224403323928429E-1  -2.044183235256200E1  -9.516831410140496   7.140128348458238E1  -9.531883657265880   7.147964405944363E1  -4.232924161081677E-1  -1.901370554002609E1  
 3.400000000000000E8    -4.119967247851750E-1  -2.083503951255288E1  -9.276297717899258   7.097196067819195E1  -9.330044526066571   7.092995424293690E1  -4.699110160247184E-1  -1.955807306341260E1  
 3.500000000000000E8    -4.548191717602927E-1  -2.137903200855596E1  -9.057566003938089   7.030547509277817E1  -9.050454195012808   7.060398288586275E1  -4.606246394603116E-1  -2.026466980571550E1  
 3.600000000000000E8    -4.776838111387909E-1  -2.211968581707754E1  -8.856111843472011   6.975638477786323E1  -8.828787114819217   7.009343979579377E1  -4.986669001693674E-1  -2.055596944428033E1  
 3.700000000000000E8    -4.974151846468582E-1  -2.236730232020700E1  -8.647342156300789   6.932733998338654E1  -8.630207013966915   6.943464347091008E1  -5.508820856596859E-1  -2.149222550623604E1  
 3.800000000000000E8    -7.203073977363270E-1  -2.318169161755375E1  -8.576048890852785   6.684890031990958E1  -8.570948254770107   6.675724222939387E1  -6.375373376237107E-1  -2.115719059667546E1  
 3.900000000000000E8    -7.377137687624746E-1  -2.392452260177157E1  -8.376205244129512   6.646895751161131E1  -8.405026360727840   6.639496683406961E1  -6.462647081410378E-1  -2.144135045474115E1  
 4.000000000000000E8    -8.019879883113674E-1  -2.447846515283982E1  -8.210157288034692   6.592762918809171E1  -8.229112084094757   6.592660641801284E1  -6.992002053026075E-1  -2.174581808225938E1  
 4.100000000000000E8    -7.388609887292437E-1  -2.481115109573518E1  -8.044136916567902   6.547080100500061E1  -8.057976888325072   6.544200099866173E1  -8.237227600053327E-1  -2.255347542100943E1  
 4.200000000000000E8    -8.280125906875825E-1  -2.581888616227182E1  -7.841124241366114   6.469517900652356E1  -7.864956406246744   6.467484031088358E1  -8.005384451470882E-1  -2.281279440972093E1  
 4.300000000000000E8    -8.282632007891052E-1  -2.622475496212997E1  -7.685247131257133   6.459740892029996E1  -7.688678366133970   6.453399584832521E1  -8.483178480926503E-1  -2.334619280295186E1  
 4.400000000000000E8    -8.767314632363760E-1  -2.655374683372343E1  -7.515951040124054   6.401977196282046E1  -7.526577468191954   6.392710154082288E1  -8.372692209275056E-1  -2.397646695648335E1  
 4.500000000000000E8    -9.247895931417940E-1  -2.704783171023405E1  -7.363002866560075   6.371402883543600E1  -7.384431305867518   6.369890898057553E1  -8.921192881701805E-1  -2.413519857182111E1  
 4.600000000000000E8    -9.763665824069212E-1  -2.737099171433362E1  -7.219777279731757   6.317154780188971E1  -7.225363222246804   6.312280412195204E1  -8.855409182996896E-1  -2.478868944548781E1  
 4.700000000000000E8    -1.025128128480252  -2.836416830162254E1  -7.085858692942330   6.243359031772860E1  -7.090828367275090   6.253474726376663E1  -9.294801797254360E-1  -2.492117436585574E1  
 4.800000000000000E8    -1.002512489808620  -2.879729107571993E1  -6.916707973554805   6.216847665841165E1  -6.913928235569462   6.221795178957356E1  -9.929122198833374E-1  -2.548964630186183E1  
 4.900000000000000E8    -1.077830482417348  -2.931743496299762E1  -6.757168368272869   6.159137634837814E1  -6.775088520534658   6.162181875298310E1  -9.961813067052530E-1  -2.611037797034098E1  
 5.000000000000000E8    -1.148848582792653  -2.987158991373374E1  -6.678694859371145   6.122488928320247E1  -6.670340102456323   6.124112434893289E1  -1.006360377511949  -2.603146121757394E1  
 5.100000000000000E8    -1.131679144149652  -2.990235626090477E1  -6.549818988762371   6.075884290583179E1  -6.558204456066950   6.077884257162215E1  -1.076820001821998  -2.659476156281115E1  
 5.200000000000000E8    -1.171864238157158  -3.035321106894027E1  -6.411216831598395   6.025950425595764E1  -6.404565772920374   6.020034500765043E1  -1.113865063043885  -2.736105305679435E1  
 5.300000000000000E8    -1.173249476381400  -3.108222711771532E1  -6.259852283401125   5.984269918089495E1  -6.276553257885627   5.972206747288414E1  -1.185826874954297  -2.761050354325279E1  
 5.400000000000000E8    -1.210261048227904  -3.152377778771828E1  -6.145246826991320   5.937671027736218E1  -6.147963874931001   5.934423422321193E1  -1.223689631251411  -2.794313856417445E1  
 5.500000000000000E8    -1.259243147502141  -3.206452885191641E1  -6.028446186460632   5.895202277371284E1  -6.038834940008342   5.903495812460847E1  -1.245482847687778  -2.842648619012317E1  
 5.600000000000000E8    -1.328070505771503  -3.239774970929972E1  -5.904549783080662   5.839286907368197E1  -5.902783091339541   5.853057366089949E1  -1.264927483086242  -2.896361597874610E1  
 5.700000000000000E8    -1.336897400260041  -3.289044962993417E1  -5.812127435328383   5.800011556490620E1  -5.808477256163928   5.801377369030917E1  -1.337472076408229  -2.932742246771930E1  
 5.800000000000000E8    -1.383967924221171  -3.333293884651572E1  -5.679424891283585   5.757504977094301E1  -5.683168645658586   5.759682975153215E1  -1.341504085350391  -2.973385738169758E1  
 5.900000000000000E8    -1.433585257261667  -3.384397035021399E1  -5.590913432608314   5.712273281348552E1  -5.585375344089539   5.717668271600677E1  -1.389168067984463  -3.017323288614573E1  
 6.000000000000000E8    -1.500432783612989  -3.447749511494982E1  -5.501645153243643   5.669780611453273E1  -5.505016300752446   5.681074594938822E1  -1.391591227353140  -3.047612392685599E1  
 6.100000000000000E8    -1.494283535350267  -3.485292503898976E1  -5.390201867671253   5.637808177473391E1  -5.398947789052466   5.632671934616953E1  -1.484907685352381  -3.096254223248831E1  
 6.200000000000000E8    -1.572760473395004  -3.533640329602247E1  -5.292064214605542   5.605150631794943E1  -5.298491532122954   5.604759753320482E1  -1.472838417129828  -3.110635169476553E1  
 6.300000000000000E8    -1.623026085799575  -3.571304973076727E1  -5.221022441953597   5.552804719304263E1  -5.214019812114830   5.552096581680213E1  -1.532372734828831  -3.147817260761518E1  
 6.400000000000000E8    -1.645077526209512  -3.620254812370536E1  -5.114058813684355   5.515338066648756E1  -5.110969006370011   5.513901845548617E1  -1.573079715159538  -3.184004039738242E1  
 6.500000000000000E8    -1.676088915163401  -3.659373637726711E1  -5.002678951214941   5.488720706411750E1  -5.016650137962675   5.481957665234669E1  -1.614050878381929  -3.195120532025322E1  
 6.600000000000000E8    -1.721497664168813  -3.693297078867757E1  -4.937458433708618   5.436235368205135E1  -4.935763713419963   5.441937976259385E1  -1.666304095922688  -3.249347763020818E1  
 6.700000000000000E8    -1.764614290881146  -3.727049802886848E1  -4.827526170387744   5.399351358394825E1  -4.829847099069229   5.390438364264915E1  -1.738648189571309  -3.301063145273750E1  
 6.800000000000000E8    -1.787675456694197  -3.781881565233289E1  -4.742564876937185   5.360493086941827E1  -4.754550513639334   5.355715455848812E1  -1.788844437314259  -3.320543722767417E1  
 6.900000000000000E8    -1.802473745941056  -3.830888802324168E1  -4.653586429468000   5.315822097001530E1  -4.660579758691082   5.317788498059673E1  -1.847963513752470  -3.352135684052264E1  
 7.000000000000000E8    -1.882828477352565  -3.869448810648968E1  -4.581596143282827   5.273940612373126E1  -4.591703063034556   5.284774652799992E1  -1.854845122915053  -3.400465713241085E1  
 7.100000000000000E8    -1.957822734898148  -3.917087512428801E1  -4.514611724353540   5.229588798779846E1  -4.513784957822182   5.231069870886721E1  -1.892043490916816  -3.454580331183696E1  
 7.200000000000000E8    -1.985044043208550  -3.968474567749624E1  -4.436920563096146   5.190829862993520E1  -4.433526751931679   5.192829158948396E1  -1.950541942677548  -3.470074101475141E1  
 7.300000000000000E8    -2.045980714193181  -3.994776384813790E1  -4.368636983045882   5.159543520742758E1  -4.386014213830984   5.156501302910073E1  -1.979489535426850  -3.511051702727999E1  
 7.400000000000000E8    -2.056505270725731  -4.036914658612007E1  -4.297013242464717   5.127365425492948E1  -4.299530712727926   5.124342437685288E1  -2.025028456931115  -3.545553345024752E1  
 7.500000000000000E8    -2.102529707809703  -4.090441975169874E1  -4.229873045374744   5.085665322187531E1  -4.234634216357993   5.087848730528246E1  -2.078456387146422  -3.567166295046393E1  
 7.600000000000000E8    -2.150508448128684  -4.103679824680740E1  -4.173329079525643   5.053275498911752E1  -4.174060991223387   5.057685598058323E1  -2.123675983492932  -3.610491635070741E1  
 7.700000000000000E8    -2.187960533901517  -4.149990960698381E1  -4.095165205389585   5.025925475846989E1  -4.104317071507985   5.024822058987353E1  -2.157719030329617  -3.638356470820618E1  
 7.800000000000000E8    -2.253374506489212  -4.198362214792677E1  -4.019534435819574   4.984656958898668E1  -4.020528385979169   4.983870547440512E1  -2.199403039578422  -3.666115817687307E1  
 7.900000000000000E8    -2.282788732502517  -4.216773333534392E1  -3.951896869215172   4.959401223284627E1  -3.965152507438268   4.958433185949914E1  -2.250855635603850  -3.684338904189956E1  
 8.000000000000000E8    -2.356811438751662  -4.263353700565907E1  -3.896937786509438   4.909639832307440E1  -3.892916817399717   4.924001019259643E1  -2.279273175850275  -3.732475240787981E1  
 8.100000000000000E8    -2.374544282909267  -4.307931256707423E1  -3.813362218044336   4.883440489016351E1  -3.832702327052597   4.875006308555879E1  -2.360135648918943  -3.753236090171130E1  
 8.200000000000000E8    -2.442124352048985  -4.344717420250196E1  -3.760997721316307   4.849049496237583E1  -3.765035300332121   4.850772928588501E1  -2.397060837163417  -3.793756658414747E1  
 8.300000000000000E8    -2.480131157638482  -4.383122476621688E1  -3.694437127703998   4.810745748951596E1  -3.713246644047641   4.809503376796626E1  -2.442490294701750  -3.832894153561568E1  
 8.400000000000000E8    -2.515760748952943  -4.425352738644698E1  -3.647945833635628   4.778354672494162E1  -3.655897237206233   4.781996700086392E1  -2.485483682502096  -3.851120662122297E1  
 8.500000000000000E8    -2.553404996891083  -4.459255763043733E1  -3.587242203369998   4.746568668042865E1  -3.585915680715270   4.742109576805598E1  -2.520801418216272  -3.894160968078644E1  
 8.600000000000000E8    -2.579702144006458  -4.484993471184914E1  -3.536175354196247   4.711056249466915E1  -3.535245087116389   4.702574133590518E1  -2.587849978320049  -3.933959193668477E1  
 8.700000000000000E8    -2.633453053616735  -4.517869136979680E1  -3.476982668910406   4.675032391785095E1  -3.491456774872992   4.670954592087956E1  -2.609076314251673  -3.961011140157576E1  
 8.800000000000000E8    -2.664080278419538  -4.567952999354126E1  -3.437965289834180   4.644126163497229E1  -3.447993009758110   4.655249359789681E1  -2.669752819654478  -3.967874621420167E1  
 8.900000000000000E8    -2.728986352147214  -4.578314853150921E1  -3.382514534370534   4.614400059202060E1  -3.382320817496836   4.614932830719950E1  -2.696488307901613  -4.025718886813358E1  
 9.000000000000000E8    -2.783746899196752  -4.613673589983104E1  -3.337396215607678   4.582098216763887E1  -3.325724297609018   4.587945945787009E1  -2.738186065584619  -4.045473421238208E1  
 9.100000000000000E8    -2.821288306868349  -4.647012166179252E1  -3.281585233150366   4.560760235828788E1  -3.283450121763936   4.560384013761006E1  -2.802497795754019  -4.066795807385378E1  
 9.200000000000000E8    -2.852059752445180  -4.677435639885500E1  -3.235418871182477   4.527474119382521E1  -3.234694672442263   4.527222833263767E1  -2.856077705584013  -4.093296423932636E1  
 9.300000000000000E8    -2.898381305085628  -4.722284190453984E1  -3.181522350369858   4.497484343033737E1  -3.177495549590052   4.494911310358438E1  -2.906426796010047  -4.125833908105984E1  
 9.400000000000000E8    -2.951582291902230  -4.759802557736746E1  -3.126164134526642   4.463507790459765E1  -3.126845383558792   4.468897439859766E1  -2.948493616060563  -4.150528985457815E1  
 9.500000000000000E8    -2.985334114976299  -4.786806413824840E1  -3.073530944538897   4.433560897186961E1  -3.086794173960231   4.436047815448997E1  -3.007570288807007  -4.185027287569726E1  
 9.600000000000000E8    -3.035631293494426  -4.817518413777545E1  -3.046353260425471   4.408089462952928E1  -3.034575862054580   4.402257384342156E1  -3.054557046452249  -4.218641436261081E1  
 9.700000000000000E8    -3.059766318588891  -4.858277691856972E1  -2.988390739231282   4.379881045404278E1  -3.001869704658730   4.373717179686503E1  -3.102813132601482  -4.244346104127914E1  
