! Skyworks SMV1408-219 De-embedded S-Parameter Data																		
! Created  11-5-2013																		
! 2 Port Network Data																		
! Mounted on Board # SK41159-3 Rev 1 in Series, Cathode is connected to RF1 as Input( Pin 1) and Anode is connected RF2 as Output(Pin 2)																	
! Temperature = +25 °C																		
! RF traces and connectors are de-embedded using TRL calibration and standards																		
! Reference planes are package pins																		
! Pin 1 Input port (S-Port1), Pin 2 Output port (S-port2)																		
! Pin = 0 dBm, Bias: Vr = 2.5V																		
! Dev # 1

#  HZ   S   DB   R     50.00 
! Rohde & Schwarz ZVA24 4Ports - Version 2.90 - 1145.1110k26 SN: 100216
! Date: 2013-11-05 15:26:48
! Measurements: S11 S21 S12 S22 
! 
 1.000000000000000E7     7.736365502728008E-1   3.669337738461017  -3.664626661502206E1   8.157966541899599E1  -3.721769744291436E1   8.929501487865663E1  -1.029325628914839  -5.784206935492124  
 2.000000000000000E7    -3.505918426196640E-1  -1.329924536855583  -3.139776390349660E1   9.122473072358457E1  -3.193678191489373E1   8.735215909312524E1  -1.423907344780022E-1   2.455019597199010E-1  
 3.000000000000000E7     3.334177143239436E-1  -4.545826447047179E-1  -2.770193562418498E1   9.078031397762574E1  -2.795416611545273E1   8.940496306019846E1  -1.302976403339853E-1  -2.533604771666222  
 4.000000000000000E7    -9.243858916625614E-2  -3.574545819935219  -2.525667357270591E1   8.696018622290650E1  -2.510007222437735E1   8.857650875009762E1   4.046034390146423E-2  -1.874453733459618  
 5.000000000000000E7    -2.050637249412743E-1  -4.596379546165115  -2.340152460909873E1   8.620133713245086E1  -2.324822417513415E1   8.510938156230185E1   2.616683933658635E-1  -3.683308432107241  
 6.000000000000000E7    -6.312873233954099E-3  -5.100736772916423  -2.169010265423113E1   8.584754776193682E1  -2.178184102870967E1   8.503408796074383E1  -7.315439701830284E-2  -4.285117901471904  
 7.000000000000000E7     1.462938190479642E-2  -6.729174477483213  -2.027848475225395E1   8.457239115354602E1  -2.033978849543603E1   8.471197515975256E1   1.013599379338221E-1  -4.591010911254931  
 8.000000000000000E7    -1.286307763755194E-1  -6.564016902089090  -1.942573596942938E1   8.377831331216724E1  -1.928516963345431E1   8.412919889684153E1  -1.832050166664263E-2  -6.275109848219754  
 9.000000000000000E7    -9.366919657927446E-2  -6.078516785372576  -1.832278476940532E1   8.324634241007318E1  -1.830642347274643E1   8.347906983099486E1  -1.539200724519353E-1  -7.796968273987682  
 1.000000000000000E8    -1.189151571525547E-1  -7.713887420138486  -1.738453658601855E1   8.237475123271635E1  -1.734179426169413E1   8.366059377201692E1  -8.217884177040258E-2  -7.249550073881261  
 1.100000000000000E8    -2.193253836703260E-2  -8.984386715248240  -1.654153900510581E1   8.133167904817239E1  -1.652597767656345E1   8.219639418898889E1  -6.148713179694162E-2  -7.998072932235379  
 1.200000000000000E8    -1.480609242045748E-1  -9.940474404742087  -1.580005463232945E1   8.038534104556179E1  -1.575151172008225E1   8.144464898179903E1  -2.812143328873294E-2  -9.153464254784256  
 1.300000000000000E8    -7.392195805856615E-2  -1.014248890131100E1  -1.511704502308575E1   8.037858546830601E1  -1.515874213191808E1   8.039075220097482E1  -1.660396270229348E-1  -1.011243260193859E1  
 1.400000000000000E8    -1.803066459994286E-1  -1.127904779828036E1  -1.446282121246316E1   7.902878153323798E1  -1.447485473278626E1   7.947383223024364E1  -7.531501249445162E-2  -1.084947523211130E1  
 1.500000000000000E8    -1.426253274252627E-1  -1.239146987596426E1  -1.388076468872094E1   7.844452950048976E1  -1.393797027559410E1   7.847113184426159E1  -1.463687647498749E-1  -1.166722335333190E1  
 1.600000000000000E8    -2.334964119900536E-1  -1.251368569562104E1  -1.345361502506649E1   7.777636343462250E1  -1.342058844550069E1   7.789176610608358E1  -1.757108230519432E-1  -1.269818733747371E1  
 1.700000000000000E8    -1.819239378088359E-1  -1.349653052402843E1  -1.286831148784341E1   7.719249462117423E1  -1.290327025131258E1   7.715429621008899E1  -1.895926619593250E-1  -1.331791059831953E1  
 1.800000000000000E8    -2.148223491731021E-1  -1.462196229050371E1  -1.242881628703642E1   7.650275253382515E1  -1.246175117422382E1   7.648954381463494E1  -2.516872612336937E-1  -1.356261609559587E1  
 1.900000000000000E8    -2.583950330723553E-1  -1.487858718894402E1  -1.199642274131916E1   7.578172950841285E1  -1.202248376350753E1   7.594444041734353E1  -2.783506485618587E-1  -1.452242862366374E1  
 2.000000000000000E8    -2.298714405771393E-1  -1.597566537928873E1  -1.155039555608613E1   7.493204608020278E1  -1.157086553898824E1   7.511652009860897E1  -2.905412040019055E-1  -1.534296686062210E1  
 2.100000000000000E8    -2.793868030150332E-1  -1.660176238427816E1  -1.114574178443908E1   7.456738207305757E1  -1.115928806035775E1   7.464557253833060E1  -2.915300866796590E-1  -1.591759223622702E1  
 2.200000000000000E8    -2.964460109485191E-1  -1.714018862667077E1  -1.075371512862583E1   7.394351100943628E1  -1.079813759492104E1   7.407690690924356E1  -3.102885219626149E-1  -1.657168430948697E1  
 2.300000000000000E8    -3.085987329800848E-1  -1.831288132906574E1  -1.039787764837289E1   7.309543199174267E1  -1.041641601822258E1   7.309558799166750E1  -3.783436888527330E-1  -1.713546861095335E1  
 2.400000000000000E8    -3.784256968797495E-1  -1.879521801092417E1  -1.010364193122176E1   7.246099866636698E1  -1.008254802458528E1   7.264909465660773E1  -3.974134461941241E-1  -1.791287950007316E1  
 2.500000000000000E8    -4.552259794417655E-1  -1.944042490209584E1  -9.766749195301744   7.172218638750434E1  -9.758617511234771   7.183712540998195E1  -3.778548019838882E-1  -1.857517301224661E1  
 2.600000000000000E8    -4.434903012063323E-1  -1.998842334248361E1  -9.482601845402321   7.116613643349926E1  -9.485946716468636   7.111634924581301E1  -4.729310198069467E-1  -1.954660433258961E1  
 2.700000000000000E8    -4.555842123731705E-1  -2.097228468639664E1  -9.146396597503424   7.036102938127790E1  -9.166136444384183   7.046522555785047E1  -4.749733391315165E-1  -2.019097031861361E1  
 2.800000000000000E8    -5.350739959118711E-1  -2.170374499179263E1  -8.883865134769309   6.970586356819590E1  -8.870199542836073   6.968000459692490E1  -4.740860215712669E-1  -2.089248386808947E1  
 2.900000000000000E8    -5.622180385220855E-1  -2.258475687526232E1  -8.618343916957958   6.881856428786310E1  -8.622176792760445   6.899438252152957E1  -5.540132505461057E-1  -2.152016904817986E1  
 3.000000000000000E8    -6.114354441732178E-1  -2.308063952813793E1  -8.384997469723771   6.830818415578715E1  -8.390098415297947   6.849837474758496E1  -6.039674359929514E-1  -2.217106229374545E1  
 3.100000000000000E8    -6.233473302655045E-1  -2.372579703583877E1  -8.132390560230903   6.771472739971880E1  -8.184675554167374   6.778952682490815E1  -6.909423180003255E-1  -2.274760431845322E1  
 3.200000000000000E8    -6.930738426152344E-1  -2.448965145346995E1  -7.891108729240165   6.699343741813556E1  -7.912339088469147   6.718603523141468E1  -6.605107771998632E-1  -2.341248856205968E1  
 3.300000000000000E8    -6.830749404762841E-1  -2.533657415495239E1  -7.638649336306017   6.647412559226410E1  -7.672774978320066   6.647787266225261E1  -7.104906364674775E-1  -2.394598531229635E1  
 3.400000000000000E8    -7.185882537536175E-1  -2.587760526194886E1  -7.432016496581412   6.593097464572523E1  -7.475656820882723   6.586929080160613E1  -7.663971700310152E-1  -2.454861739595751E1  
 3.500000000000000E8    -7.591811598898000E-1  -2.650401722466006E1  -7.214633505981854   6.514239833410846E1  -7.218402174096080   6.535779763906892E1  -7.813546293370861E-1  -2.541838582644774E1  
 3.600000000000000E8    -8.277658426977004E-1  -2.742488756582985E1  -7.058263241383780   6.441049342191310E1  -7.003942396913970   6.471730488163065E1  -8.285757929171972E-1  -2.583447617540424E1  
 3.700000000000000E8    -8.412914150582541E-1  -2.766776765568903E1  -6.840097505769558   6.402116996251844E1  -6.829586578907717   6.404241073164522E1  -8.959480507353536E-1  -2.676662008547372E1  
 3.800000000000000E8    -1.090165176732545  -2.852274063193623E1  -6.798191968992030   6.150722499557185E1  -6.811410259561885   6.146091917361693E1  -1.020170612263643  -2.638861730638039E1  
 3.900000000000000E8    -1.141027169423062  -2.927041616742834E1  -6.633947133311805   6.111423275655681E1  -6.649827803064756   6.109252418241793E1  -1.038140269734126  -2.659777930026509E1  
 4.000000000000000E8    -1.211832840139145  -2.995813826697489E1  -6.466019574271979   6.042887847069316E1  -6.481240560198028   6.041635216801165E1  -1.096394613242991  -2.721986534113342E1  
 4.100000000000000E8    -1.147147328250855  -3.031334885451437E1  -6.307403877426576   5.997553087891525E1  -6.331120431970160   5.998727477269194E1  -1.240224877421331  -2.795181289940887E1  
 4.200000000000000E8    -1.282368503183581  -3.143151789211683E1  -6.143411240061535   5.902829186533916E1  -6.162276509926647   5.911975672124067E1  -1.241470035968428  -2.828935083471156E1  
 4.300000000000000E8    -1.281691124336452  -3.191505688957379E1  -5.992006219680018   5.889035726478186E1  -6.016873838288158   5.886146753422391E1  -1.315624581764749  -2.896880564767356E1  
 4.400000000000000E8    -1.347691781202534  -3.216997091825712E1  -5.841633361412502   5.834375771198572E1  -5.860762682159062   5.813435615711737E1  -1.324016833235346  -2.972700904500181E1  
 4.500000000000000E8    -1.422163549474301  -3.286719868149891E1  -5.711199683644677   5.789181791466345E1  -5.734200476209518   5.790799066037227E1  -1.393821998776886  -2.983873782508881E1  
 4.600000000000000E8    -1.486243904289695  -3.334677588095888E1  -5.580091925568000   5.718050204429279E1  -5.586099502285738   5.714299856680938E1  -1.388070967772878  -3.067541840777964E1  
 4.700000000000000E8    -1.555513367600768  -3.430211632331040E1  -5.466861965101175   5.646485313759047E1  -5.468987224240817   5.658212645682961E1  -1.458094166444210  -3.076130875736369E1  
 4.800000000000000E8    -1.542472095252218  -3.486439359330127E1  -5.309883980139807   5.605928260918820E1  -5.314359849473159   5.608697327256422E1  -1.538546895081709  -3.150293951528300E1  
 4.900000000000000E8    -1.637018483903417  -3.544286749570798E1  -5.165611109379681   5.545402997759635E1  -5.180636516115949   5.551391901773434E1  -1.548551941429765  -3.213720400611630E1  
 5.000000000000000E8    -1.707454311608444  -3.608100547266127E1  -5.087855618885413   5.501529254428770E1  -5.093550511742599   5.503957036894428E1  -1.579953724931239  -3.212887118001249E1  
 5.100000000000000E8    -1.714506566199379  -3.613871180426143E1  -4.976172734187442   5.448285087273035E1  -4.989895076658991   5.452009764133192E1  -1.658497892048790  -3.274214046320512E1  
 5.200000000000000E8    -1.776289948079830  -3.652303051653238E1  -4.866389576984806   5.402892232513919E1  -4.871681896921691   5.394464440569014E1  -1.727056361886212  -3.349217043345220E1  
 5.300000000000000E8    -1.811157668371202  -3.741506261135088E1  -4.744514522681817   5.344579024301601E1  -4.744739012733674   5.340798086732572E1  -1.809545414660693  -3.382895519571886E1  
 5.400000000000000E8    -1.844714854117743  -3.789832159058890E1  -4.628488273167267   5.298871090650540E1  -4.635627614748334   5.292142898171181E1  -1.864705533846872  -3.430332797732942E1  
 5.500000000000000E8    -1.918212798465633  -3.845702667612597E1  -4.529596357680868   5.250877675810739E1  -4.548555413672631   5.253944597158672E1  -1.904339743107905  -3.480282836620046E1  
 5.600000000000000E8    -1.998205310477602  -3.885641763132226E1  -4.420757200730098   5.190718428398028E1  -4.437438547286091   5.205837151979468E1  -1.951658201061743  -3.530560255752921E1  
 5.700000000000000E8    -2.024595322240319  -3.937015770577912E1  -4.348348760535906   5.147315508119019E1  -4.346470957290005   5.151043584640739E1  -2.027488150521855  -3.571043076909295E1  
 5.800000000000000E8    -2.093677233644558  -3.991842140342030E1  -4.226642892288859   5.098478963793175E1  -4.244951012678222   5.100663959081751E1  -2.050767222819446  -3.620594992595132E1  
 5.900000000000000E8    -2.159524458287586  -4.041073629923778E1  -4.159305977129270   5.053687662179588E1  -4.163950062308865   5.049795404930422E1  -2.124674730019064  -3.674110575478984E1  
 6.000000000000000E8    -2.244980553517117  -4.112393466741776E1  -4.089305675800476   5.002018694242218E1  -4.087680103476191   5.017620865962357E1  -2.130104033109868  -3.698099101452735E1  
 6.100000000000000E8    -2.245974009968620  -4.146954685825055E1  -3.988508897606711   4.972304795553093E1  -3.990238209951541   4.965299955009107E1  -2.225182502450262  -3.751407672147048E1  
 6.200000000000000E8    -2.331143480042742  -4.207327641594193E1  -3.890933648286489   4.929559115458071E1  -3.911047527217891   4.925460895493031E1  -2.241912548382076  -3.775824189962822E1  
 6.300000000000000E8    -2.399450918822184  -4.247397994052318E1  -3.835570208217368   4.877076854742421E1  -3.846366262122988   4.876735379687619E1  -2.321176488915753  -3.810100907505664E1  
 6.400000000000000E8    -2.441539321323533  -4.291938715617563E1  -3.754255363739347   4.841780576251114E1  -3.750300309331037   4.838196357150311E1  -2.365595227303355  -3.843715240902312E1  
 6.500000000000000E8    -2.496432745177044  -4.343112093097106E1  -3.659432351239056   4.802491446110599E1  -3.667683805446564   4.804403194514715E1  -2.424640610382775  -3.859327021647957E1  
 6.600000000000000E8    -2.559980092878238  -4.376417792605103E1  -3.608357086653931   4.752083379245944E1  -3.611192482462092   4.760271143136284E1  -2.501477829610196  -3.912509926110819E1  
 6.700000000000000E8    -2.616149509178299  -4.410797664367215E1  -3.511024089487320   4.710486622414899E1  -3.514766975811254   4.700850365220010E1  -2.587311583453285  -3.976438874784418E1  
 6.800000000000000E8    -2.652807985345064  -4.469175014163626E1  -3.441267245419916   4.670826894395356E1  -3.459111434036514   4.667663824216293E1  -2.654923062135924  -3.991260131929167E1  
 6.900000000000000E8    -2.679758535487835  -4.523656799192253E1  -3.365407738588865   4.618581058452995E1  -3.372042804347413   4.626041288361455E1  -2.726295144568068  -4.026389326540882E1  
 7.000000000000000E8    -2.783514125829941  -4.566115900867883E1  -3.312901181309107   4.577341862722425E1  -3.322530857646446   4.589368943215844E1  -2.750321276956887  -4.078651179031481E1  
 7.100000000000000E8    -2.861069396215469  -4.610166354827203E1  -3.252054084910264   4.534352507209700E1  -3.256658180654214   4.542428581280564E1  -2.800827818867344  -4.131451345590030E1  
 7.200000000000000E8    -2.908028881312023  -4.662969209974248E1  -3.191355168866380   4.498227543384603E1  -3.194167663446385   4.489096186589656E1  -2.871915143478558  -4.155674501374801E1  
 7.300000000000000E8    -2.983476001070468  -4.695830191618448E1  -3.138298176639517   4.458149828190359E1  -3.158887555109728   4.461322069602614E1  -2.910586045104899  -4.191913373465570E1  
 7.400000000000000E8    -3.011630259684980  -4.739987250396575E1  -3.082564945616460   4.420224791670038E1  -3.084293186633008   4.428547287496362E1  -2.973843025563591  -4.222476253021101E1  
 7.500000000000000E8    -3.059124519108330  -4.791893631881609E1  -3.021578053959182   4.384863113990523E1  -3.037226555666528   4.387159464849869E1  -3.039152414798351  -4.250182293600725E1  
 7.600000000000000E8    -3.133917512347101  -4.806399180921429E1  -2.981874413759166   4.352494368432402E1  -2.973011746837313   4.350619176449769E1  -3.096754799995936  -4.299791494944559E1  
 7.700000000000000E8    -3.175622479884394  -4.853485770181916E1  -2.913331134408712   4.321881767589829E1  -2.922995417854723   4.315654373054522E1  -3.146370304034932  -4.320484977911301E1  
 7.800000000000000E8    -3.251585138718629  -4.910549710323128E1  -2.840677684556511   4.273529517562593E1  -2.845872018719543   4.277986591721749E1  -3.200724775474804  -4.352964791468201E1  
 7.900000000000000E8    -3.302872082881770  -4.926459548860048E1  -2.794630225607465   4.250805338013969E1  -2.817922126883876   4.251102541796610E1  -3.274962182556056  -4.370915020302800E1  
 8.000000000000000E8    -3.386107220296919  -4.970525961660880E1  -2.747008842117154   4.206640489149719E1  -2.751865958631701   4.213466724199004E1  -3.315793548133496  -4.420846912319907E1  
 8.100000000000000E8    -3.425704412822298  -5.019857649633302E1  -2.684052555141766   4.172861596280060E1  -2.701790238492283   4.169707846980624E1  -3.407816437658364  -4.437167394355306E1  
 8.200000000000000E8    -3.503654063512555  -5.058703708772010E1  -2.646187206072271   4.133159712763091E1  -2.650088438647298   4.139183274125218E1  -3.464929058352569  -4.481223524542069E1  
 8.300000000000000E8    -3.564890535009349  -5.092461887330360E1  -2.598958046675053   4.102356587467037E1  -2.608258768449214   4.098652809836593E1  -3.518115662509305  -4.522564311631253E1  
 8.400000000000000E8    -3.611698884021836  -5.138383945001680E1  -2.565228075617593   4.064628115634501E1  -2.564143960066983   4.070245822509033E1  -3.570427551578781  -4.540642975221295E1  
 8.500000000000000E8    -3.654776043112825  -5.173765808026972E1  -2.508493341848950   4.032529490406031E1  -2.510894740818610   4.032318904733214E1  -3.630720683540573  -4.584301956964373E1  
 8.600000000000000E8    -3.698022468591339  -5.196401834895964E1  -2.471192268750093   3.998761118980571E1  -2.466990092776711   3.994450639469587E1  -3.699512695702842  -4.621054884876406E1  
 8.700000000000000E8    -3.768755273048943  -5.230992685924672E1  -2.433133012599019   3.963333145225254E1  -2.437157414462157   3.965685131232453E1  -3.732737722172203  -4.642861895899120E1  
 8.800000000000000E8    -3.802088667495605  -5.275210862743192E1  -2.394303239145753   3.937531379583624E1  -2.402559409571403   3.945700462271525E1  -3.810329623411831  -4.656467087535137E1  
 8.900000000000000E8    -3.879654171061506  -5.293354515603180E1  -2.351311002994198   3.900596325542965E1  -2.353116368525253   3.907778375600666E1  -3.851525422248175  -4.711053187668041E1  
 9.000000000000000E8    -3.947440456511221  -5.327920556588841E1  -2.312015818296378   3.870794840528731E1  -2.306210131917147   3.875438000189137E1  -3.902638660330123  -4.728476509179709E1  
 9.100000000000000E8    -4.004524341947586  -5.371019587895162E1  -2.266449703513747   3.841351594518093E1  -2.274142622882926   3.846327929734861E1  -3.986592291339057  -4.754026374287216E1  
 9.200000000000000E8    -4.044339888840595  -5.398696995220906E1  -2.229322516666623   3.813429475714585E1  -2.236276484131194   3.814621810583905E1  -4.051871422293173  -4.781581307420172E1  
 9.300000000000000E8    -4.107801979220598  -5.436491739667095E1  -2.191348511070279   3.786457249511546E1  -2.189959985809193   3.782785370216359E1  -4.114215097455315  -4.811462846717194E1  
 9.400000000000000E8    -4.166435341158862  -5.473736356593035E1  -2.143164499551145   3.755322727630873E1  -2.150592755578698   3.752851661861671E1  -4.163775976375029  -4.837777000762350E1  
 9.500000000000000E8    -4.218992265945673  -5.506385866379144E1  -2.106205603532529   3.719731335645157E1  -2.114598422919358   3.723052950856791E1  -4.233165231602404  -4.871624808058044E1  
 9.600000000000000E8    -4.280008022519397  -5.539249097935337E1  -2.087220112120305   3.694266025955374E1  -2.085543510017980   3.691859380763518E1  -4.296453188738756  -4.902017545315887E1  
 9.700000000000000E8    -4.318321187062693  -5.577465640895518E1  -2.046566167859623   3.666562550483303E1  -2.056087705067123   3.664337930652684E1  -4.355557032979528  -4.927952636283160E1  
