! Skyworks SMV1408-219 De-embedded S-Parameter Data																		
! Created  11-5-2013																		
! 2 Port Network Data																		
! Mounted on Board # SK41159-3 Rev 1 in Series, Cathode is connected to RF1 as Input( Pin 1) and Anode is connected RF2 as Output(Pin 2)																	
! Temperature = +25 °C																		
! RF traces and connectors are de-embedded using TRL calibration and standards																		
! Reference planes are package pins																		
! Pin 1 Input port (S-Port1), Pin 2 Output port (S-port2)																		
! Pin = 0 dBm, Bias: Vr = 4V																		
! Dev # 1

#  HZ   S   DB   R     50.00 
! Rohde & Schwarz ZVA24 4Ports - Version 2.90 - 1145.1110k26 SN: 100216
! Date: 2013-11-05 15:25:02
! Measurements: S11 S21 S12 S22 
! 
 1.000000000000000E7     7.980355560328003E-1   3.789116157543980  -3.809417216100960E1   9.385005902926508E1  -3.902315678380485E1   9.216224031155765E1  -1.092414244486460  -4.344797314314927  
 2.000000000000000E7    -1.773692353415808E-1  -5.165516963074406E-1  -3.310784356587804E1   9.202747402154263E1  -3.260259222272241E1   8.895236552735170E1   1.119832660427223E-1  -1.312586452721937  
 3.000000000000000E7     1.986157468342944E-1  -4.668263201437032E-1  -2.903850010135855E1   8.751016928441115E1  -2.960569575526756E1   8.696815177373583E1  -2.607363502780287E-1  -1.744970048103490  
 4.000000000000000E7    -7.598097181538056E-2  -3.161024519273860  -2.668950477653569E1   8.811586344257438E1  -2.674582148789041E1   8.813054080498810E1  -5.193777528424740E-2  -1.543360640889252  
 5.000000000000000E7    -8.750215234230033E-2  -3.931869249610554  -2.482402798252160E1   8.753876621367087E1  -2.480964794653948E1   8.691257540403383E1   2.194580543536225E-1  -2.142132487723455  
 6.000000000000000E7     4.124745587442683E-2  -4.175091090828756  -2.306362394511756E1   8.677884004497111E1  -2.325109318274663E1   8.616962446957734E1  -1.630483003707032E-1  -3.489889966799964  
 7.000000000000000E7    -3.382867983598559E-2  -5.429895937222107  -2.180316506061412E1   8.543119383324390E1  -2.190127460553057E1   8.528323700059181E1  -6.534651383233730E-4  -3.636171138665558  
 8.000000000000000E7    -7.539183989183300E-2  -4.936737563658023  -2.079727082194008E1   8.557051576839753E1  -2.054915349634443E1   8.494606692577223E1   7.991707589438785E-2  -5.385450523204013  
 9.000000000000000E7    -2.524228130421214E-2  -4.641345260957649  -1.968409307210882E1   8.458229330576729E1  -1.971223084415373E1   8.468152638784733E1  -1.169151643408527E-1  -7.039141615478772  
 1.000000000000000E8    -9.858341309535032E-2  -6.438738679824644  -1.879166459604648E1   8.363436757457787E1  -1.879829286343914E1   8.426477002480611E1  -7.493420021039507E-2  -6.637299835027490  
 1.100000000000000E8     3.056407802001446E-2  -7.509266248694499  -1.789885529440292E1   8.303571000466360E1  -1.794936237849655E1   8.315722421088670E1  -4.766235153558891E-2  -7.109252582133711  
 1.200000000000000E8    -1.097408212059889E-1  -8.364126759046243  -1.717724369182991E1   8.206022210616443E1  -1.717363666648942E1   8.295113449597314E1  -2.227245792319683E-2  -7.799062004637814  
 1.300000000000000E8    -4.323278419559166E-2  -8.721962910061633  -1.651160455649724E1   8.195427713527249E1  -1.656342313684280E1   8.191025594738063E1  -1.499713943998028E-1  -8.748320439365713  
 1.400000000000000E8    -1.370561542582049E-1  -9.565858203606217  -1.585992649036314E1   8.070034628024537E1  -1.584475079337698E1   8.111495530426898E1   2.711351697798314E-3  -9.297498160922606  
 1.500000000000000E8    -9.477667630029960E-2  -1.052600256511409E1  -1.526173044040779E1   8.026403778792431E1  -1.526193323731642E1   8.025647585308543E1  -5.434489331186400E-2  -1.007246993503950E1  
 1.600000000000000E8    -1.379655607725220E-1  -1.060443853868340E1  -1.479328614341376E1   7.959147191545337E1  -1.478151827953950E1   7.960445709881503E1  -1.209344037102936E-1  -1.102178004053548E1  
 1.700000000000000E8    -1.200306343325874E-1  -1.137610509930939E1  -1.424473204024902E1   7.934264775425214E1  -1.424391930882801E1   7.905186460770706E1  -1.356331289247147E-1  -1.147099184015653E1  
 1.800000000000000E8    -1.276880254009975E-1  -1.255543933145313E1  -1.377175762359933E1   7.853781985601660E1  -1.379544253138313E1   7.874501294600586E1  -1.639337741328505E-1  -1.128629933773752E1  
 1.900000000000000E8    -1.675366775151817E-1  -1.274044315225523E1  -1.334205452844057E1   7.792141222495133E1  -1.336924547583557E1   7.805107521186130E1  -2.108324640427106E-1  -1.254446585889979E1  
 2.000000000000000E8    -1.379181374794769E-1  -1.361650789394778E1  -1.289771385918922E1   7.720388857950219E1  -1.289653580799677E1   7.725614910802543E1  -1.991947621734372E-1  -1.319431334095035E1  
 2.100000000000000E8    -1.907348018763629E-1  -1.412841556972183E1  -1.248819583675218E1   7.705956766923654E1  -1.251993425831558E1   7.686827592782552E1  -2.308670968213479E-1  -1.375927836155907E1  
 2.200000000000000E8    -1.944253436164174E-1  -1.463678876051080E1  -1.207213936383113E1   7.651931134320769E1  -1.211466740352745E1   7.645203484104810E1  -2.019889082086687E-1  -1.423277290079105E1  
 2.300000000000000E8    -1.918310423994887E-1  -1.577801758361001E1  -1.170220714801118E1   7.559969535211423E1  -1.173091233217737E1   7.567539836034209E1  -2.646904055228592E-1  -1.456264624501066E1  
 2.400000000000000E8    -2.511987018382301E-1  -1.615356429721340E1  -1.141569991238662E1   7.510658601187778E1  -1.140262311964763E1   7.516377396226936E1  -2.805297098565557E-1  -1.537068850376531E1  
 2.500000000000000E8    -3.220955338761356E-1  -1.669360674832863E1  -1.105250389441504E1   7.453014921114482E1  -1.106554200727416E1   7.440444188186440E1  -2.469626260681359E-1  -1.602319901185256E1  
 2.600000000000000E8    -2.816307926965853E-1  -1.715993229743802E1  -1.074586574772979E1   7.400022157957514E1  -1.078543045085896E1   7.398825138408770E1  -3.515211695964375E-1  -1.670650174750479E1  
 2.700000000000000E8    -3.105665596428803E-1  -1.800925443253917E1  -1.043504321186995E1   7.330044119766264E1  -1.047982448351759E1   7.330652597094725E1  -3.607474223133124E-1  -1.737728434042200E1  
 2.800000000000000E8    -3.840546353622751E-1  -1.854723611502110E1  -1.017322919221566E1   7.280668239304320E1  -1.012928879432049E1   7.264543131558281E1  -3.151654544986960E-1  -1.800616263400526E1  
 2.900000000000000E8    -3.979715989749922E-1  -1.941774411178988E1  -9.889477614628824   7.196678484233378E1  -9.877259166236481   7.211562728468829E1  -3.694865632414604E-1  -1.848612770378580E1  
 3.000000000000000E8    -4.391711354346211E-1  -1.982137629834953E1  -9.643395219963511   7.154180555160383E1  -9.659711691577005   7.162116297828305E1  -4.421160640620633E-1  -1.906357882809682E1  
 3.100000000000000E8    -4.576796012493719E-1  -2.050628707170080E1  -9.395706168016186   7.092455099366198E1  -9.411313314960635   7.089679377485008E1  -4.885308075428452E-1  -1.978336989316408E1  
 3.200000000000000E8    -5.205879478884673E-1  -2.110049291648317E1  -9.143455622364021   7.038553249436511E1  -9.122774964779230   7.032632915934745E1  -4.286861373499020E-1  -2.035300420293511E1  
 3.300000000000000E8    -4.830113185887597E-1  -2.203653108536004E1  -8.870815053655791   6.978615644094235E1  -8.930777981960334   6.986499328347360E1  -5.368406801253106E-1  -2.063299703220198E1  
 3.400000000000000E8    -4.954008376542576E-1  -2.247925491460052E1  -8.644995272200037   6.930298937691133E1  -8.686602378821153   6.928873207752739E1  -5.444416257018421E-1  -2.112697830088684E1  
 3.500000000000000E8    -5.484957001255604E-1  -2.300378201174191E1  -8.442038439582138   6.868534600585363E1  -8.429357873328566   6.897711483566144E1  -5.549170110179315E-1  -2.187755938788011E1  
 3.600000000000000E8    -5.844049695723378E-1  -2.380273511037794E1  -8.247943337024411   6.805897002072990E1  -8.202552296241226   6.831914251018982E1  -5.872892700458258E-1  -2.228275218919888E1  
 3.700000000000000E8    -5.960796770727408E-1  -2.412584231228490E1  -8.028954980739508   6.757591032309989E1  -8.009124653611783   6.775538296249579E1  -6.458481665607627E-1  -2.314313172370205E1  
 3.800000000000000E8    -8.371856081464892E-1  -2.485756924198954E1  -7.976946819168448   6.517774855421223E1  -7.969895533822346   6.509708294204465E1  -7.530220731225500E-1  -2.282728035105475E1  
 3.900000000000000E8    -8.663125349514150E-1  -2.559266332930271E1  -7.784053973410736   6.481146031194741E1  -7.802837667465568   6.474504411484672E1  -7.572758833788538E-1  -2.302855981034500E1  
 4.000000000000000E8    -9.360303833345326E-1  -2.623139006539472E1  -7.622337566032168   6.416309750149415E1  -7.614424840214693   6.420342376666322E1  -7.967018086264016E-1  -2.347763897368726E1  
 4.100000000000000E8    -8.708678523284219E-1  -2.646743103747798E1  -7.458165351498794   6.381474473331122E1  -7.463738722213025   6.374141862846005E1  -9.385238973101320E-1  -2.424711623295641E1  
 4.200000000000000E8    -9.715410409257972E-1  -2.754765395381076E1  -7.267686515303766   6.294173162835183E1  -7.287567664090187   6.306484586982566E1  -9.358216645678756E-1  -2.444653446346505E1  
 4.300000000000000E8    -9.577537061116042E-1  -2.803668428107477E1  -7.096461372762690   6.280796684672536E1  -7.111322807960023   6.285961536413186E1  -9.851798097521054E-1  -2.500664566710081E1  
 4.400000000000000E8    -1.011201724924157  -2.840692550937050E1  -6.936100436477055   6.216226921223316E1  -6.944456728658762   6.204993258199514E1  -9.674887065867310E-1  -2.583629334516298E1  
 4.500000000000000E8    -1.079013850354241  -2.886934395639950E1  -6.799032331178165   6.190802462619699E1  -6.810978919242411   6.193174580225899E1  -1.037332235934784  -2.589930504356801E1  
 4.600000000000000E8    -1.127900855851083  -2.930788589770339E1  -6.655232509591389   6.123218748844145E1  -6.662082834595665   6.130194323029502E1  -1.033384144419046  -2.659895694547764E1  
 4.700000000000000E8    -1.178013189344395  -3.027468199958493E1  -6.524356291563745   6.049854594704134E1  -6.519832747436301   6.071822344565143E1  -1.075961888192005  -2.670022235781667E1  
 4.800000000000000E8    -1.161486112596192  -3.076092275973806E1  -6.362785829201904   6.017445777961650E1  -6.367094930601132   6.014524492828960E1  -1.159549979624430  -2.753369715983174E1  
 4.900000000000000E8    -1.239198604178017  -3.132957085797607E1  -6.200161130866968   5.956477484680602E1  -6.224141542536662   5.964078137767433E1  -1.159828918852685  -2.805554292032297E1  
 5.000000000000000E8    -1.304409048355713  -3.185640818258202E1  -6.114701550011845   5.922027136000837E1  -6.117673644543133   5.920173235661706E1  -1.173816146186683  -2.802408959922565E1  
 5.100000000000000E8    -1.295818739365550  -3.196059221110886E1  -5.991722644149744   5.871512118813099E1  -6.007381063619268   5.875760535503593E1  -1.239255496554325  -2.860405192279118E1  
 5.200000000000000E8    -1.358650489604798  -3.226927338271162E1  -5.880935733856689   5.827527306992768E1  -5.870090690759533   5.815020873721078E1  -1.295415669612275  -2.939392216147305E1  
 5.300000000000000E8    -1.359252992073949  -3.318732282082753E1  -5.725930790560366   5.773689027364355E1  -5.734536067035848   5.768986217001618E1  -1.366836603879171  -2.958031698981232E1  
 5.400000000000000E8    -1.399672691205022  -3.369252346188350E1  -5.618210746502025   5.723881840066461E1  -5.615125827578462   5.722872882374887E1  -1.412054869771539  -3.002685942094087E1  
 5.500000000000000E8    -1.451635630369391  -3.415147815237212E1  -5.501178765253558   5.686481980167491E1  -5.515923571218129   5.693235028060499E1  -1.440557262455077  -3.048237281259705E1  
 5.600000000000000E8    -1.520612437194753  -3.449632431695106E1  -5.385067669067346   5.628740876642771E1  -5.398660645752981   5.645453319605856E1  -1.480910537708088  -3.098952013713477E1  
 5.700000000000000E8    -1.534301686095897  -3.500784705442919E1  -5.293807247356255   5.585137759599844E1  -5.290761856066999   5.585703353097809E1  -1.535013740168969  -3.146859265978555E1  
 5.800000000000000E8    -1.602617549304561  -3.549615087344877E1  -5.174387656235499   5.543280921276774E1  -5.176561310652498   5.549915228725165E1  -1.549065136769193  -3.181845637658237E1  
 5.900000000000000E8    -1.650201317507097  -3.602221067148373E1  -5.089266352492828   5.497136817380292E1  -5.086384586096567   5.499979396152515E1  -1.609359454781519  -3.236416860999083E1  
 6.000000000000000E8    -1.725080116440014  -3.660034943378319E1  -5.006522518138420   5.457807582292666E1  -5.008308632561154   5.465336695879118E1  -1.618566070269650  -3.260283383341216E1  
 6.100000000000000E8    -1.718033805740340  -3.701823812134751E1  -4.896651262956416   5.419935171753363E1  -4.898271144435196   5.415809787741183E1  -1.698341316370171  -3.308327943816153E1  
 6.200000000000000E8    -1.798645786233988  -3.756001311339966E1  -4.795070915840572   5.380453267825705E1  -4.812656995594240   5.381056017831095E1  -1.708940225167565  -3.330395361439908E1  
 6.300000000000000E8    -1.843974825501606  -3.788012876006290E1  -4.722683647730429   5.332576164917648E1  -4.735549153797378   5.333736341312638E1  -1.771935146765879  -3.365452027350312E1  
 6.400000000000000E8    -1.883860082585226  -3.836188393097014E1  -4.635413590674118   5.299943659163662E1  -4.630044084765578   5.297304958079437E1  -1.805771716517024  -3.396907799716432E1  
 6.500000000000000E8    -1.919776055314722  -3.884581280116765E1  -4.524467314259063   5.260942753447282E1  -4.540430983398747   5.257688954285427E1  -1.858262296013870  -3.422178512529901E1  
 6.600000000000000E8    -1.982331353296834  -3.916626215294630E1  -4.469063352882524   5.209232760716783E1  -4.467516974757041   5.219047588507934E1  -1.920342587810591  -3.468338660881150E1  
 6.700000000000000E8    -2.019847834414509  -3.951685874689679E1  -4.360405491095616   5.170901805579661E1  -4.363310092808289   5.166996216157882E1  -1.996338159308724  -3.519881093547304E1  
 6.800000000000000E8    -2.043677638325792  -4.008717444345661E1  -4.275083622545155   5.132096142906479E1  -4.291572033794645   5.131593957212156E1  -2.044699132403129  -3.538970090878458E1  
 6.900000000000000E8    -2.071020530150204  -4.059537911063806E1  -4.201886835348319   5.084541834606461E1  -4.207806091563889   5.091363038174735E1  -2.116014608987847  -3.576944502127108E1  
 7.000000000000000E8    -2.159993277195115  -4.099345472498202E1  -4.137384930248842   5.044074463561778E1  -4.141231311318112   5.051029254583327E1  -2.122559283606762  -3.630469820957047E1  
 7.100000000000000E8    -2.231093107862990  -4.145834053940929E1  -4.060794189693680   5.001736592035816E1  -4.073416129068279   5.007734908042659E1  -2.173254071479277  -3.674569220331193E1  
 7.200000000000000E8    -2.264159899023032  -4.200506827268883E1  -3.992164214172691   4.960926558410782E1  -3.992459873927387   4.961164982310495E1  -2.224278521572096  -3.697501522114879E1  
 7.300000000000000E8    -2.326787233933445  -4.233335283498295E1  -3.927925221703335   4.922030400681030E1  -3.947223696759437   4.924439026079595E1  -2.261696537672926  -3.739808434192194E1  
 7.400000000000000E8    -2.346648501831163  -4.267299013534164E1  -3.862125637832617   4.895348629246857E1  -3.867499138898522   4.891205840026953E1  -2.316127703983415  -3.771370135869259E1  
 7.500000000000000E8    -2.387606501546168  -4.319677805877087E1  -3.796755309804805   4.859278580442275E1  -3.813738455086474   4.854373293308012E1  -2.371136367852818  -3.796713834635149E1  
 7.600000000000000E8    -2.448890091198778  -4.337176975307605E1  -3.743442801765921   4.821415822432537E1  -3.744299061765765   4.819390737974884E1  -2.418962469229147  -3.844530819254977E1  
 7.700000000000000E8    -2.488802544782109  -4.381927138669728E1  -3.672804147759648   4.790829100252891E1  -3.675340658021784   4.791064548391758E1  -2.448070224665953  -3.864142646940179E1  
 7.800000000000000E8    -2.548503285295541  -4.426263554268120E1  -3.594092085131126   4.756426052046768E1  -3.601071877483518   4.746899976112340E1  -2.508610358455661  -3.896202995003230E1  
 7.900000000000000E8    -2.599006728369616  -4.451196193065700E1  -3.545052967992377   4.726258737050179E1  -3.549648060909940   4.724350165226753E1  -2.558577347325880  -3.911718832862835E1  
 8.000000000000000E8    -2.666281982638145  -4.496199546572558E1  -3.480346014769921   4.677452134264406E1  -3.468285236030763   4.684027067281361E1  -2.579121926905140  -3.966995166275181E1  
 8.100000000000000E8    -2.701296610909592  -4.550099139017185E1  -3.414814129765114   4.642271468086145E1  -3.427371737555990   4.639986710039483E1  -2.680477064503909  -3.980886865477984E1  
 8.200000000000000E8    -2.760681404574445  -4.583584827304732E1  -3.358294974026900   4.609356914275623E1  -3.357724547334061   4.610328099785406E1  -2.716420943818787  -4.024482628145756E1  
 8.300000000000000E8    -2.813130926409878  -4.620524098412963E1  -3.298488783419386   4.576062117037445E1  -3.317133473156726   4.572180894071832E1  -2.774625125736900  -4.064602475122226E1  
 8.400000000000000E8    -2.853969821632501  -4.662147559869102E1  -3.259291001965747   4.537687035478470E1  -3.254768315873932   4.546048655851179E1  -2.809744872328460  -4.082418638562371E1  
 8.500000000000000E8    -2.894094018304445  -4.695816038754168E1  -3.200831509765454   4.507251164271865E1  -3.204880168927284   4.506610709040960E1  -2.872038864205669  -4.124601220189879E1  
 8.600000000000000E8    -2.921396360553949  -4.725951353755664E1  -3.147113211186239   4.469635742522191E1  -3.144542661596275   4.469720857378789E1  -2.925756733026641  -4.161964437278926E1  
 8.700000000000000E8    -2.988738113201534  -4.753844930643609E1  -3.103645930876617   4.437448625744801E1  -3.111520555308698   4.435605824897010E1  -2.952573521679097  -4.191440293272078E1  
 8.800000000000000E8    -3.014024409692422  -4.799237502168342E1  -3.063028802210762   4.410384398690204E1  -3.067568219602342   4.416616852921550E1  -3.015481355377316  -4.199973998940847E1  
 8.900000000000000E8    -3.072654968473746  -4.815144878099722E1  -3.002654434145699   4.378438932343187E1  -3.008684552221991   4.381446457631321E1  -3.051627269272200  -4.255343421395538E1  
 9.000000000000000E8    -3.138926672626140  -4.852170227461726E1  -2.960366086714583   4.344964987227063E1  -2.962786283896819   4.355696998020795E1  -3.097322265018625  -4.268425160898212E1  
 9.100000000000000E8    -3.188960476094517  -4.888274436089748E1  -2.912026210420172   4.320990139227092E1  -2.921268886551842   4.325138277197906E1  -3.166038477781451  -4.293218979068453E1  
 9.200000000000000E8    -3.210887488978083  -4.915935846489924E1  -2.864066400200466   4.284444024484638E1  -2.872575488719551   4.291875758459045E1  -3.221141614884718  -4.322714113300116E1  
 9.300000000000000E8    -3.281754237895270  -4.961100596749175E1  -2.826666909633714   4.256534276802013E1  -2.823966764127893   4.255863081556406E1  -3.280717320805570  -4.356192317122604E1  
 9.400000000000000E8    -3.327248230226239  -5.000352654738276E1  -2.775786005872243   4.222981866365777E1  -2.776164231783515   4.229663195545267E1  -3.331205761972054  -4.384466912014091E1  
 9.500000000000000E8    -3.371799265487457  -5.030197558091950E1  -2.722926072646847   4.190497609610707E1  -2.736588754450014   4.197804662972470E1  -3.388859149703865  -4.417073533936188E1  
 9.600000000000000E8    -3.421656228335162  -5.063877649463500E1  -2.698119535830003   4.165165391787603E1  -2.695804119595365   4.165542271259736E1  -3.440878452799207  -4.445603791772752E1  
 9.700000000000000E8    -3.449401158247987  -5.100452611750472E1  -2.640868061884705   4.138644103798158E1  -2.657007077106560   4.132221131348979E1  -3.490175300718822  -4.478470343759857E1  
